Time Stamp,ID,Extended,Dir,Bus,LEN,D1,D2,D3,D4,D5,D6,D7,D8
4410990705,000000AA,false,Rx,0,8,1A,6F,1A,6F,1A,6F,1A,6F,
4410990871,00000232,false,Rx,0,4,00,00,00,38,00,00,00,00,
4410996816,00000020,false,Rx,0,7,20,00,07,01,00,00,4F,00,
4410997033,000000B4,false,Rx,0,8,00,00,00,00,00,00,00,BC,
4410997250,00000025,false,Rx,0,8,A2,37,98,00,FF,FF,FF,9B,
4410997474,00000235,false,Rx,0,6,00,00,00,00,00,3D,00,00,
4410997853,00000024,false,Rx,0,8,02,02,01,F5,62,1A,80,22,
4410998561,00000442,false,Rx,0,8,43,02,00,00,04,00,00,00,
4410999318,00000127,false,Rx,0,8,00,10,00,08,00,0E,FE,54,
4411001273,000001C4,false,Rx,0,8,00,00,00,00,00,00,00,CD,
4411002799,000000AA,false,Rx,0,8,1A,6F,1A,6F,1A,6F,1A,6F,
4411003016,000001AA,false,Rx,0,6,00,00,00,00,00,B1,00,00,
4411003287,00000224,false,Rx,0,8,00,00,00,00,00,00,00,08,
4411006496,00000260,false,Rx,0,8,00,00,01,00,00,00,00,6B,
4411008939,00000020,false,Rx,0,7,20,00,07,01,00,00,4F,00,
4411009210,00000230,false,Rx,0,7,00,02,02,01,00,00,3E,00,
4411009433,00000025,false,Rx,0,8,A2,37,98,00,FF,FF,FF,9B,
4411009596,00000245,false,Rx,0,5,00,00,00,00,4C,00,00,00,
4411009760,0000032A,false,Rx,0,2,00,2F,00,00,00,00,00,00,
4411010138,00000024,false,Rx,0,8,02,01,01,F4,62,19,80,1F,
4411010577,00000361,false,Rx,0,8,80,00,00,00,20,00,00,88,
4411011503,00000262,false,Rx,0,5,21,00,00,00,8A,00,00,00,
4411012591,00000247,false,Rx,0,5,06,00,FF,00,00,00,00,00,
4411017071,000000AA,false,Rx,0,8,1A,6F,1A,6F,1A,6F,1A,6F,
4411017077,00000232,false,Rx,0,4,00,00,00,38,00,00,00,00,
4411017082,00000320,false,Rx,0,8,44,20,04,00,FF,00,00,92,
4411017087,00000127,false,Rx,0,8,00,10,00,08,00,0E,FE,54,
4411017093,000003F9,false,Rx,0,8,58,5C,56,01,00,00,00,0F,
4411021070,00000020,false,Rx,0,7,20,00,07,01,00,00,4F,00,
4411021287,000000B4,false,Rx,0,8,00,00,00,00,00,00,00,BC,
4411021510,00000024,false,Rx,0,8,02,01,01,F4,62,19,7F,1E,
4411021784,00000025,false,Rx,0,8,A2,37,98,00,FF,FF,FF,9B,
4411022001,00000235,false,Rx,0,6,00,00,00,00,00,3D,00,00,
4411024880,000001C4,false,Rx,0,8,00,00,00,00,00,00,00,CD,
4411026727,00000260,false,Rx,0,8,00,00,02,00,00,00,00,6C,
4411027107,000000AA,false,Rx,0,8,1A,6F,1A,6F,1A,6F,1A,6F,
4411027269,000000B6,false,Rx,0,4,00,00,00,BA,00,00,00,00,
4411027547,00000224,false,Rx,0,8,00,00,00,00,00,00,00,08,
4411032103,00000127,false,Rx,0,8,00,10,00,08,00,0E,FE,54,
4411033082,00000245,false,Rx,0,5,00,00,00,00,4C,00,00,00,
4411033298,00000020,false,Rx,0,7,20,00,07,01,00,00,4F,00,
4411035934,00000230,false,Rx,0,7,00,02,02,01,00,00,3E,00,
4411035939,00000024,false,Rx,0,8,02,01,01,F4,62,19,81,20,
4411035944,00000025,false,Rx,0,8,A2,37,98,00,FF,FF,FF,9B,
4411036111,00000247,false,Rx,0,5,06,00,FF,00,00,00,00,00,
4411036825,00000351,false,Rx,0,4,00,00,00,00,00,00,00,00,
4411039157,000000AA,false,Rx,0,8,1A,6F,1A,6F,1A,6F,1A,6F,
4411039320,00000232,false,Rx,0,4,00,00,00,38,00,00,00,00,
4411045187,00000020,false,Rx,0,7,20,00,07,01,00,00,4F,00,
4411045465,000000B4,false,Rx,0,8,00,00,00,00,00,00,00,BC,
4411045628,00000235,false,Rx,0,6,00,00,00,00,00,3D,00,00,
4411045901,00000025,false,Rx,0,8,A2,37,98,00,FF,FF,FF,9B,
4411046118,00000024,false,Rx,0,8,02,01,01,F4,62,19,80,1F,
4411046334,000003B0,false,Rx,0,6,00,76,00,46,00,09,00,00,
4411046935,00000260,false,Rx,0,8,00,00,01,00,00,00,00,6B,
4411048397,000001C4,false,Rx,0,8,00,00,00,00,00,00,00,CD,
4411048620,00000127,false,Rx,0,8,00,10,00,08,00,0E,FE,54,
4411051170,000000AA,false,Rx,0,8,1A,6F,1A,6F,1A,6F,1A,6F,
4411051387,000001AA,false,Rx,0,6,00,00,00,00,00,B1,00,00,
4411051662,00000224,false,Rx,0,8,00,00,00,00,00,00,00,08,
4411051827,00000262,false,Rx,0,5,21,00,00,00,8A,00,00,00,
4411057118,00000245,false,Rx,0,5,00,00,00,00,4C,00,00,00,
4411057231,00000020,false,Rx,0,7,20,00,07,01,00,00,4F,00,
4411057454,00000230,false,Rx,0,7,00,02,02,01,00,00,3E,00,
4411057725,00000025,false,Rx,0,8,A2,37,98,00,FF,FF,FF,9B,
4411057838,0000032A,false,Rx,0,2,00,2F,00,00,00,00,00,00,
4411058270,00000024,false,Rx,0,8,02,01,01,F4,62,19,80,1F,
4411059687,00000247,false,Rx,0,5,06,00,FF,00,00,00,00,00,
4411063264,000000AA,false,Rx,0,8,1A,6F,1A,6F,1A,6F,1A,6F,
4411063435,00000232,false,Rx,0,4,00,00,00,38,00,00,00,00,
4411063651,00000320,false,Rx,0,8,44,20,04,00,FF,00,00,92,
4411064900,00000127,false,Rx,0,8,00,10,00,08,00,0E,FE,54,
4411066768,00000620,false,Rx,0,8,10,00,00,26,B0,00,00,50,
4411067146,00000260,false,Rx,0,8,00,00,02,00,00,00,00,6C,
4411069273,00000020,false,Rx,0,7,20,00,07,01,00,00,4F,00,
4411069551,000000B4,false,Rx,0,8,00,00,00,00,00,00,00,BC,
4411069773,00000025,false,Rx,0,8,A2,37,98,00,FF,FF,FF,9B,
4411069990,00000235,false,Rx,0,6,00,00,00,00,00,3D,00,00,
4411070535,00000024,false,Rx,0,8,02,01,01,F4,62,19,80,1F,
4411071946,000001C4,false,Rx,0,8,00,00,00,00,00,00,00,CD,
4411075948,000004A7,false,Rx,0,8,22,00,75,00,70,00,00,00,
4411075954,00000498,false,Rx,0,8,C0,00,00,40,B9,00,00,15,
4411075959,00000361,false,Rx,0,8,80,00,00,00,20,00,00,88,
4411075964,000000AA,false,Rx,0,8,1A,6F,1A,6F,1A,6F,1A,6F,
4411075970,000000B6,false,Rx,0,4,00,00,00,BA,00,00,00,00,
4411075975,00000224,false,Rx,0,8,00,00,00,00,00,00,00,08,
4411076142,0000049C,false,Rx,0,8,A0,05,0A,00,00,00,00,1E,
4411080211,00000245,false,Rx,0,5,00,00,00,00,4C,00,00,00,
4411081298,00000127,false,Rx,0,8,00,10,00,08,00,0E,FE,54,
4411081521,00000020,false,Rx,0,7,20,00,07,01,00,00,4F,00,
4411081737,00000230,false,Rx,0,7,00,02,02,01,00,00,3E,00,
4411081955,00000024,false,Rx,0,8,02,01,01,F4,62,19,80,1F,
4411082225,00000025,false,Rx,0,8,A2,37,98,00,FF,FF,FF,9B,
4411083257,00000247,false,Rx,0,5,06,00,FF,00,00,00,00,00,
4411087328,000000AA,false,Rx,0,8,1A,6F,1A,6F,1A,6F,1A,6F,
4411087498,00000232,false,Rx,0,4,00,00,00,38,00,00,00,00,
4411087719,00000260,false,Rx,0,8,00,00,02,00,00,00,00,6C,
4411087831,00000423,false,Rx,0,1,20,00,00,00,00,00,00,00,
4411092277,00000262,false,Rx,0,5,21,00,00,00,8A,00,00,00,
4411093310,00000020,false,Rx,0,7,20,00,07,01,00,00,4F,00,
4411097182,000000B4,false,Rx,0,8,00,00,00,00,00,00,00,BC,
4411097187,00000025,false,Rx,0,8,A2,37,98,00,FF,FF,FF,9B,
4411097193,00000235,false,Rx,0,6,00,00,00,00,00,3D,00,00,
4411097198,00000024,false,Rx,0,8,02,01,01,F4,62,19,80,1F,
4411097203,000001C4,false,Rx,0,8,00,00,00,00,00,00,00,CD,
4411097484,00000351,false,Rx,0,4,00,00,00,00,00,00,00,00,
4411097701,00000127,false,Rx,0,8,00,10,00,08,00,0E,FE,54,
4411097922,00000443,false,Rx,0,8,4D,02,00,2F,06,00,00,00,
4411099385,000000AA,false,Rx,0,8,1A,6F,1A,6F,1A,6F,1A,6F,
4411099554,000001AA,false,Rx,0,6,00,00,00,00,00,B1,00,00,
4411099826,00000224,false,Rx,0,8,00,00,00,00,00,00,00,08,
4411103734,00000245,false,Rx,0,5,00,00,00,00,4C,00,00,00,
4411105360,00000020,false,Rx,0,7,20,00,07,01,00,00,4F,00,
4411105585,00000230,false,Rx,0,7,00,02,02,01,00,00,3E,00,
4411105804,00000025,false,Rx,0,8,A2,37,98,00,FF,FF,FF,9B,
4411105913,0000032A,false,Rx,0,2,00,2F,00,00,00,00,00,00,
4411106397,00000024,false,Rx,0,8,02,01,01,F4,62,19,80,1F,
4411106840,00000247,false,Rx,0,5,06,00,FF,00,00,00,00,00,
4411107655,00000260,false,Rx,0,8,00,00,02,00,00,00,00,6C,
4411111394,000000AA,false,Rx,0,8,1A,6F,1A,6F,1A,6F,1A,6F,
4411111564,00000232,false,Rx,0,4,00,00,00,38,00,00,00,00,
4411111783,00000320,false,Rx,0,8,44,20,04,00,FF,00,00,92,
4411117187,00000127,false,Rx,0,8,00,10,00,08,00,0E,FE,54,
4411117354,00000020,false,Rx,0,7,20,00,07,01,00,00,4F,00,
4411117631,000000B4,false,Rx,0,8,00,00,00,00,00,00,00,BC,
4411117851,00000024,false,Rx,0,8,02,01,01,F4,62,19,80,1F,
4411118122,00000025,false,Rx,0,8,A2,37,98,00,FF,FF,FF,9B,
4411118285,00000235,false,Rx,0,6,00,00,00,00,00,3D,00,00,
4411118563,000003B7,false,Rx,0,8,00,07,00,00,00,00,00,00,
4411119053,000001C4,false,Rx,0,8,00,00,00,00,00,00,00,CD,
4411123405,000000AA,false,Rx,0,8,1A,6F,1A,6F,1A,6F,1A,6F,
4411123575,000000B6,false,Rx,0,4,00,00,00,BA,00,00,00,00,
4411123848,00000224,false,Rx,0,8,00,00,00,00,00,00,00,08,
4411127318,00000245,false,Rx,0,5,00,00,00,00,4C,00,00,00,
4411127868,00000260,false,Rx,0,8,00,00,02,00,00,00,00,6C,
4411129385,00000020,false,Rx,0,7,20,00,07,01,00,00,4F,00,
4411129607,00000230,false,Rx,0,7,00,02,02,01,00,00,3E,00,
4411129880,00000025,false,Rx,0,8,A2,37,98,00,FF,FF,FF,9B,
4411130097,00000024,false,Rx,0,8,02,02,01,F4,62,19,80,20,
4411130428,00000127,false,Rx,0,8,00,10,00,08,00,0E,FE,54,
4411130645,00000247,false,Rx,0,5,06,00,FF,00,00,00,00,00,
4411132924,00000262,false,Rx,0,5,21,00,00,00,8A,00,00,00,
4411137238,000000AA,false,Rx,0,8,1A,6F,1A,6F,1A,6F,1A,6F,
4411137244,00000232,false,Rx,0,4,00,00,00,38,00,00,00,00,
4411139644,00000361,false,Rx,0,8,80,00,00,00,20,00,00,88,
4411141438,00000020,false,Rx,0,7,20,00,07,01,00,00,4F,00,
4411141655,000000B4,false,Rx,0,8,00,00,00,00,00,00,00,BC,
4411141928,00000025,false,Rx,0,8,A2,37,98,00,FF,FF,FF,9B,
4411142091,00000235,false,Rx,0,6,00,00,00,00,00,3D,00,00,
4411142362,00000024,false,Rx,0,8,02,01,01,F4,62,19,80,1F,
4411142585,000004C3,false,Rx,0,8,03,00,00,00,00,00,00,00,
4411142859,000001C4,false,Rx,0,8,00,00,00,00,00,00,00,CD,
4411146826,00000127,false,Rx,0,8,00,10,00,08,00,0E,FE,54,
4411147533,000000AA,false,Rx,0,8,1A,6F,1A,6F,1A,6F,1A,6F,
4411147751,000001AA,false,Rx,0,6,00,00,00,00,00,B1,00,00,
4411147968,00000224,false,Rx,0,8,00,00,00,00,00,00,00,08,
4411148239,00000260,false,Rx,0,8,00,00,02,00,00,00,00,6C,
4411150848,00000245,false,Rx,0,5,00,00,00,00,4C,00,00,00,
4411153455,00000020,false,Rx,0,7,20,00,07,01,00,00,4F,00,
4411156079,00000230,false,Rx,0,7,00,02,02,01,00,00,3E,00,
4411156084,00000025,false,Rx,0,8,A2,37,98,00,FF,FF,FF,9B,
4411156089,00000247,false,Rx,0,5,06,00,FF,00,00,00,00,00,
4411156095,0000032A,false,Rx,0,2,00,2F,00,00,00,00,00,00,
4411156099,00000024,false,Rx,0,8,02,02,01,F4,62,19,80,20,
4411158167,00000351,false,Rx,0,4,00,00,00,00,00,00,00,00,
4411159529,000000AA,false,Rx,0,8,1A,6F,1A,6F,1A,6F,1A,6F,
4411159693,00000232,false,Rx,0,4,00,00,00,38,00,00,00,00,
4411159913,00000320,false,Rx,0,8,44,20,04,00,FF,00,00,92,
4411163224,00000127,false,Rx,0,8,00,10,00,08,00,0E,FE,54,
4411165509,00000020,false,Rx,0,7,20,00,07,01,00,00,4F,00,
4411165782,000000B4,false,Rx,0,8,00,00,00,00,00,00,00,BC,
4411166000,00000025,false,Rx,0,8,A2,37,98,00,FF,FF,FF,9B,
4411166270,000001C4,false,Rx,0,8,00,00,00,00,00,00,00,CD,
4411166495,00000235,false,Rx,0,6,00,00,00,00,00,3D,00,00,
4411166820,00000024,false,Rx,0,8,02,02,01,F4,62,19,80,20,
4411168335,00000260,false,Rx,0,8,00,00,02,00,00,00,00,6C,
4411168885,000004C7,false,Rx,0,8,08,00,01,21,00,00,00,00,
4411171523,000000AA,false,Rx,0,8,1A,6F,1A,6F,1A,6F,1A,6F,
4411171686,000000B6,false,Rx,0,4,00,00,00,BA,00,00,00,00,
4411171959,00000224,false,Rx,0,8,00,00,00,00,00,00,00,08,
4411172230,000004A0,false,Rx,0,8,06,BA,00,00,00,00,00,00,
4411172448,000004A1,false,Rx,0,8,FE,05,80,DE,80,20,C1,42,
4411172717,000004A2,false,Rx,0,8,19,00,00,C7,00,37,BB,01,
4411173206,00000262,false,Rx,0,5,21,00,00,00,8A,00,00,00,
4411177314,00000245,false,Rx,0,5,00,00,00,00,4C,00,00,00,
4411177487,00000247,false,Rx,0,5,06,00,FF,00,00,00,00,00,
4411177704,00000020,false,Rx,0,7,20,00,07,01,00,00,4F,00,
4411177924,00000230,false,Rx,0,7,00,02,02,01,00,00,3E,00,
4411178195,00000024,false,Rx,0,8,02,01,01,F4,62,19,7F,1E,
4411178412,00000025,false,Rx,0,8,A2,37,98,00,FF,FF,FF,9B,
4411179612,00000127,false,Rx,0,8,00,10,00,08,00,0E,FE,54,
4411183577,000000AA,false,Rx,0,8,1A,6F,1A,6F,1A,6F,1A,6F,
4411183740,00000232,false,Rx,0,4,00,00,00,38,00,00,00,00,
4411188403,00000260,false,Rx,0,8,00,00,02,00,00,00,00,6C,
4411189602,00000020,false,Rx,0,7,20,00,07,01,00,00,4F,00,
4411189874,000000B4,false,Rx,0,8,00,00,00,00,00,00,00,BC,
4411190091,00000025,false,Rx,0,8,A2,37,98,00,FF,FF,FF,9B,
4411190362,000001C4,false,Rx,0,8,00,00,00,00,00,00,00,CD,
4411190586,00000024,false,Rx,0,8,02,01,01,F4,62,19,80,1F,
4411190807,00000235,false,Rx,0,6,00,00,00,00,00,3D,00,00,
4295299160,000003B1,false,Rx,0,8,00,00,01,01,00,08,00,00,
4295299165,000000AA,false,Rx,0,8,1A,6F,1A,6F,1A,6F,1A,6F,
4295299170,000001AA,false,Rx,0,6,00,00,00,00,00,B1,00,00,
4295299175,00000127,false,Rx,0,8,00,10,00,08,00,0E,FE,54,
4295299289,00000224,false,Rx,0,8,00,00,00,00,00,00,00,08,
4295299567,0000044D,false,Rx,0,8,5C,02,00,00,00,00,00,00,
4295300978,00000245,false,Rx,0,5,00,00,00,00,4C,00,00,00,
4295304072,00000247,false,Rx,0,5,06,00,FF,00,00,00,00,00,
4295304672,00000020,false,Rx,0,7,20,00,07,01,00,00,4F,00,
4295304891,00000230,false,Rx,0,7,00,02,02,01,00,00,3E,00,
4295305108,00000025,false,Rx,0,8,A2,37,98,00,FF,FF,FF,9B,
4295305272,0000032A,false,Rx,0,2,00,2F,00,00,00,00,00,00,
4295305656,00000024,false,Rx,0,8,02,01,01,F4,62,19,80,1F,
4295307175,00000361,false,Rx,0,8,80,00,00,00,20,00,00,88,
4295310652,000000AA,false,Rx,0,8,1A,6F,1A,6F,1A,6F,1A,6F,
4295310816,00000232,false,Rx,0,4,00,00,00,38,00,00,00,00,
4295311033,00000320,false,Rx,0,8,44,20,04,00,FF,00,00,92,
4295311740,00000260,false,Rx,0,8,00,00,02,00,00,00,00,6C,
4295315405,00000127,false,Rx,0,8,00,10,00,08,00,0E,FE,54,
4295316277,000001C4,false,Rx,0,8,00,00,00,00,00,00,00,CD,
4295316608,00000262,false,Rx,0,5,21,00,00,00,8A,00,00,00,
4295320431,00000020,false,Rx,0,7,20,00,07,01,00,00,4F,00,
4295320436,000000B4,false,Rx,0,8,00,00,00,00,00,00,00,BC,
4295320441,00000025,false,Rx,0,8,A2,37,98,00,FF,FF,FF,9B,
4295320447,00000235,false,Rx,0,6,00,00,00,00,00,3D,00,00,
4295320452,00000024,false,Rx,0,8,02,01,01,F4,62,19,80,1F,
4295321815,00000351,false,Rx,0,4,00,00,00,00,00,00,00,00,
4295322738,000000AA,false,Rx,0,8,1A,6F,1A,6F,1A,6F,1A,6F,
4295322902,000000B6,false,Rx,0,4,00,00,00,BA,00,00,00,00,
4295323173,00000224,false,Rx,0,8,00,00,00,00,00,00,00,08,
4295324544,00000245,false,Rx,0,5,00,00,00,00,4C,00,00,00,
4295327586,00000247,false,Rx,0,5,06,00,FF,00,00,00,00,00,
4295328783,00000020,false,Rx,0,7,20,00,07,01,00,00,4F,00,
4295329000,00000230,false,Rx,0,7,00,02,02,01,00,00,3E,00,
4295329217,00000025,false,Rx,0,8,A2,37,98,00,FF,FF,FF,9B,
4295329495,00000024,false,Rx,0,8,02,02,01,F4,62,1A,80,21,
4295331778,00000127,false,Rx,0,8,00,10,00,08,00,0E,FE,54,
4295331995,00000260,false,Rx,0,8,00,00,02,00,00,00,00,6C,
4295334873,000000AA,false,Rx,0,8,1A,6F,1A,6F,1A,6F,1A,6F,
4295335036,00000232,false,Rx,0,4,00,00,00,38,00,00,00,00,
4295335307,000006C0,false,Rx,0,8,E4,00,80,A0,00,00,00,00,
4295340388,000001C4,false,Rx,0,8,00,00,00,00,00,00,00,CD,
4295340884,00000020,false,Rx,0,7,20,00,07,01,00,00,4F,00,
4295341101,000000B4,false,Rx,0,8,00,00,00,00,00,00,00,BC,
4295341371,00000025,false,Rx,0,8,A2,37,98,00,FF,FF,FF,9B,
4295341594,00000024,false,Rx,0,8,02,02,01,F5,62,1A,80,22,
4295341813,00000235,false,Rx,0,6,00,00,00,00,00,3D,00,00,
4295347026,000000AA,false,Rx,0,8,1A,6F,1A,6F,1A,6F,1A,6F,
4295347242,000001AA,false,Rx,0,6,00,00,00,00,00,B1,00,00,
4295347457,00000224,false,Rx,0,8,00,00,00,00,00,00,00,08,
4295348168,00000127,false,Rx,0,8,00,10,00,08,00,0E,FE,54,
4295348332,00000245,false,Rx,0,5,00,00,00,00,4C,00,00,00,
4295351157,00000247,false,Rx,0,5,06,00,FF,00,00,00,00,00,
4295352244,00000260,false,Rx,0,8,00,00,02,00,00,00,00,6C,
4295353062,00000020,false,Rx,0,7,20,00,07,01,00,00,4F,00,
4295353279,00000230,false,Rx,0,7,00,02,02,01,00,00,3E,00,
4295353503,00000025,false,Rx,0,8,A2,37,98,00,FF,FF,FF,9B,
4295353666,0000032A,false,Rx,0,2,00,2F,00,00,00,00,00,00,
4295353885,00000024,false,Rx,0,8,02,02,01,F5,62,1A,80,22,
4295359241,00000262,false,Rx,0,5,21,00,00,00,8A,00,00,00,
4295359246,000000AA,false,Rx,0,8,1A,6F,1A,6F,1A,6F,1A,6F,
4295359252,00000232,false,Rx,0,4,00,00,00,38,00,00,00,00,
4295359471,00000320,false,Rx,0,8,44,20,04,00,00,00,00,93,
4295363379,000001C4,false,Rx,0,8,00,00,00,00,00,00,00,CD,
4295364525,00000127,false,Rx,0,8,00,10,00,08,00,0E,FE,54,
4295365173,00000020,false,Rx,0,7,20,00,07,01,00,00,4F,00,
4295365390,000000B4,false,Rx,0,8,00,00,00,00,00,00,00,BC,
4295365614,00000025,false,Rx,0,8,A2,37,98,00,FF,FF,FF,9B,
4295365835,00000235,false,Rx,0,6,00,00,00,00,00,3D,00,00,
4295366106,00000024,false,Rx,0,8,02,01,01,F5,62,1A,7F,20,
4295369694,000003F9,false,Rx,0,8,58,5C,56,01,00,00,00,0F,
4295370565,000003FA,false,Rx,0,1,00,00,00,00,00,00,00,00,
4295371106,000000AA,false,Rx,0,8,1A,6F,1A,6F,1A,6F,1A,6F,
4295371269,000000B6,false,Rx,0,4,00,00,00,BA,00,00,00,00,
4295371547,00000224,false,Rx,0,8,00,00,00,00,00,00,00,08,
4295371765,00000361,false,Rx,0,8,80,00,00,00,20,00,00,88,
4295371982,00000245,false,Rx,0,5,00,00,00,00,4C,00,00,00,
4295372252,00000499,false,Rx,0,8,D2,00,37,80,00,00,00,00,
4295372475,00000260,false,Rx,0,8,00,00,01,00,00,00,00,6B,
4295374670,0000063B,false,Rx,0,8,16,00,3A,F6,00,00,14,AE,
4295374891,00000247,false,Rx,0,5,06,00,FF,00,00,00,00,00,
4295380472,00000020,false,Rx,0,7,20,00,07,01,00,00,4F,00,
4295380478,00000230,false,Rx,0,7,00,02,02,01,00,00,3E,00,
4295380483,00000025,false,Rx,0,8,A2,37,98,00,FF,FF,FF,9B,
4295380488,00000394,false,Rx,0,1,00,00,00,00,00,00,00,00,
4295380493,0000049A,false,Rx,0,8,00,13,A1,00,51,40,32,A8,
4295380498,00000024,false,Rx,0,8,02,02,01,F5,62,1A,80,22,
4295380938,00000127,false,Rx,0,8,00,10,00,08,00,0E,FE,54,
4295382514,00000351,false,Rx,0,4,00,00,00,00,00,00,00,00,
4295383002,0000049B,false,Rx,0,8,00,A0,23,20,08,00,40,00,
4295383219,000000AA,false,Rx,0,8,1A,6F,1A,6F,1A,6F,1A,6F,
4295383381,00000232,false,Rx,0,4,00,00,00,38,00,00,00,00,
4295386918,000001C4,false,Rx,0,8,00,00,00,00,00,00,00,CD,
4295388056,0000049D,false,Rx,0,8,66,65,00,C2,81,0A,37,80,
4295389250,00000020,false,Rx,0,7,20,00,07,01,00,00,4F,00,
4295389473,000000B4,false,Rx,0,8,00,00,00,00,00,00,00,BC,
4295389744,00000024,false,Rx,0,8,02,02,01,F5,62,1A,80,22,
4295389961,00000025,false,Rx,0,8,A2,37,98,00,FF,FF,FF,9B,
4295390178,00000235,false,Rx,0,6,00,00,00,00,00,3D,00,00,
4295390456,000004C1,false,Rx,0,8,01,00,00,00,00,00,00,00,
4295391160,00000610,false,Rx,0,8,20,00,00,64,C0,FF,FD,74,
4295392192,000004A8,false,Rx,0,8,00,07,80,00,00,00,00,04,
4295392685,00000260,false,Rx,0,8,00,00,02,00,00,00,00,6C,
4295395233,00000245,false,Rx,0,5,00,00,00,00,4C,00,00,00,
4295395458,000000AA,false,Rx,0,8,1A,6F,1A,6F,1A,6F,1A,6F,
4295395620,000001AA,false,Rx,0,6,00,00,00,00,00,B1,00,00,
4295395894,00000224,false,Rx,0,8,00,00,00,00,00,00,00,08,
4295401670,00000127,false,Rx,0,8,00,10,00,08,00,0E,FE,54,
4295401675,00000262,false,Rx,0,5,21,00,00,00,8A,00,00,00,
4295401681,00000247,false,Rx,0,5,06,00,FF,00,00,00,00,00,
4295401728,00000020,false,Rx,0,7,20,00,07,01,00,00,4F,00,
4295401733,00000230,false,Rx,0,7,00,02,02,01,00,00,3E,00,
4295401739,00000025,false,Rx,0,8,A2,37,98,00,FF,FF,FF,9B,
4295402010,00000024,false,Rx,0,8,02,02,01,F5,62,1A,80,22,
4295402119,0000032A,false,Rx,0,2,00,2F,00,00,00,00,00,00,
4295402389,0000049E,false,Rx,0,8,00,80,00,C0,01,B8,02,4B,
4295403262,0000045C,false,Rx,0,8,5F,02,00,20,08,00,00,00,
4295404455,0000049F,false,Rx,0,8,00,44,D0,00,00,00,00,00,
4295407386,000000AA,false,Rx,0,8,1A,6F,1A,6F,1A,6F,1A,6F,
4295407554,00000232,false,Rx,0,4,00,00,00,38,00,00,00,00,
4295407827,00000320,false,Rx,0,8,44,20,04,00,00,00,00,93,
4295409837,00000626,false,Rx,0,8,1C,00,00,00,00,00,00,00,
4295410492,000001C4,false,Rx,0,8,00,00,00,00,00,00,00,CD,
4295410873,00000387,false,Rx,0,8,00,00,00,00,00,00,3F,3F,
4295412773,00000260,false,Rx,0,8,00,00,01,00,00,00,00,6B,
4295413312,00000020,false,Rx,0,7,20,00,07,01,00,00,4F,00,
4295413590,000000B4,false,Rx,0,8,00,00,00,00,00,00,00,BC,
4295413811,00000025,false,Rx,0,8,A2,37,98,00,FF,FF,FF,9B,
4295414081,00000127,false,Rx,0,8,00,10,00,08,00,0E,FE,54,
4295414298,00000024,false,Rx,0,8,02,02,01,F5,62,1A,80,22,
4295414522,00000235,false,Rx,0,6,00,00,00,00,00,3D,00,00,
4295420524,00000389,false,Rx,0,8,00,20,00,00,00,00,00,00,
4295420530,00000245,false,Rx,0,5,00,00,00,00,4C,00,00,00,
4295420535,000000AA,false,Rx,0,8,1A,6F,1A,6F,1A,6F,1A,6F,
4295420540,000000B6,false,Rx,0,4,00,00,00,BA,00,00,00,00,
4295420545,00000224,false,Rx,0,8,00,00,00,00,00,00,00,08,
4295421801,00000247,false,Rx,0,5,06,00,FF,00,00,00,00,00,
4295425391,00000020,false,Rx,0,7,20,00,07,01,00,00,4F,00,
4295425615,00000230,false,Rx,0,7,00,02,02,01,00,00,3E,00,
4295425834,00000025,false,Rx,0,8,A2,37,98,00,FF,FF,FF,9B,
4295426483,00000024,false,Rx,0,8,02,02,01,F5,62,1A,80,22,
4295430066,00000127,false,Rx,0,8,00,10,00,08,00,0E,FE,54,
4295431483,000000AA,false,Rx,0,8,1A,6F,1A,6F,1A,6F,1A,6F,
4295431646,00000232,false,Rx,0,4,00,00,00,38,00,00,00,00,
4295433112,00000260,false,Rx,0,8,00,00,01,00,00,00,00,6B,
4295434039,000001C4,false,Rx,0,8,00,00,00,00,00,00,00,CD,
4295436265,00000361,false,Rx,0,8,80,00,00,00,20,00,00,88,
4295439345,00000020,false,Rx,0,7,20,00,07,01,00,00,4F,00,
4295439351,000000B4,false,Rx,0,8,00,00,00,00,00,00,00,BC,
4295439356,00000025,false,Rx,0,8,A2,37,98,00,FF,FF,FF,9B,
4295439361,00000235,false,Rx,0,6,00,00,00,00,00,3D,00,00,
4295439367,00000262,false,Rx,0,5,21,00,00,00,8A,00,00,00,
4295439372,00000024,false,Rx,0,8,02,01,01,F5,62,1A,80,21,
4295442313,00000245,false,Rx,0,5,00,00,00,00,4C,00,00,00,
4295443182,00000351,false,Rx,0,4,00,00,00,00,00,00,00,00,
4295443508,000000AA,false,Rx,0,8,1A,6F,1A,6F,1A,6F,1A,6F,
4295443724,000001AA,false,Rx,0,6,00,00,00,00,00,B1,00,00,
4295443943,00000224,false,Rx,0,8,00,00,00,00,00,00,00,08,
4295445352,00000247,false,Rx,0,5,06,00,FF,00,00,00,00,00,
4295446499,00000127,false,Rx,0,8,00,10,00,08,00,0E,FE,54,
4295449541,00000020,false,Rx,0,7,20,00,07,01,00,00,4F,00,
4295449759,00000230,false,Rx,0,7,00,02,02,01,00,00,3E,00,
4295449976,00000025,false,Rx,0,8,A2,37,98,00,FF,FF,FF,9B,
4295450246,00000024,false,Rx,0,8,02,01,01,F5,62,1A,80,21,
4295450355,0000032A,false,Rx,0,2,00,2F,00,00,00,00,00,00,
4295453394,00000260,false,Rx,0,8,00,00,02,00,00,00,00,6C,
4295455520,000000AA,false,Rx,0,8,1A,6F,1A,6F,1A,6F,1A,6F,
4295455683,00000232,false,Rx,0,4,00,00,00,38,00,00,00,00,
4295455955,00000320,false,Rx,0,8,44,20,04,00,00,00,00,93,
4295456064,000003D3,false,Rx,0,2,00,00,00,00,00,00,00,00,
4295460549,000001C4,false,Rx,0,8,00,00,00,00,00,00,00,CD,
4295461587,00000020,false,Rx,0,7,20,00,07,01,00,00,4F,00,
4295461860,000000B4,false,Rx,0,8,00,00,00,00,00,00,00,BC,
4295462077,00000025,false,Rx,0,8,A2,37,98,00,FF,FF,FF,9B,
4295462294,00000235,false,Rx,0,6,00,00,00,00,00,3D,00,00,
4295462518,00000024,false,Rx,0,8,02,01,01,F5,62,1A,81,22,
4295462897,00000127,false,Rx,0,8,00,10,00,08,00,0E,FE,54,
4295465885,00000245,false,Rx,0,5,00,00,00,00,4C,00,00,00,
4295467571,000000AA,false,Rx,0,8,1A,6F,1A,6F,1A,6F,1A,6F,
4295467734,000000B6,false,Rx,0,4,00,00,00,BA,00,00,00,00,
4295468005,00000224,false,Rx,0,8,00,00,00,00,00,00,00,08,
4295468984,00000247,false,Rx,0,5,06,00,FF,00,00,00,00,00,
4295469802,00000620,false,Rx,0,8,10,00,00,26,B0,00,00,50,
4295470889,0000038E,false,Rx,0,8,00,00,00,00,00,00,00,00,
4295473549,00000260,false,Rx,0,8,00,00,02,00,00,00,00,6C,
4295473766,00000020,false,Rx,0,7,20,00,07,01,00,00,4F,00,
4295474036,00000230,false,Rx,0,7,00,02,02,01,00,00,3E,00,
4295474253,00000025,false,Rx,0,8,A2,37,98,00,FF,FF,FF,9B,
4295474638,00000024,false,Rx,0,8,02,01,01,F5,62,1A,7F,20,
4295479371,0000038F,false,Rx,0,8,09,00,00,00,00,00,00,00,
4295479376,00000262,false,Rx,0,5,21,00,00,00,8A,00,00,00,
4295479381,00000127,false,Rx,0,8,00,10,00,08,00,0E,FE,54,
4295479609,000000AA,false,Rx,0,8,1A,6F,1A,6F,1A,6F,1A,6F,
4295479776,00000232,false,Rx,0,4,00,00,00,38,00,00,00,00,
4295481130,000001C4,false,Rx,0,8,00,00,00,00,00,00,00,CD,
4295485639,00000020,false,Rx,0,7,20,00,07,01,00,00,4F,00,
4295485860,000000B4,false,Rx,0,8,00,00,00,00,00,00,00,BC,
4295486130,00000025,false,Rx,0,8,A2,37,98,00,FF,FF,FF,9B,
4295486347,00000235,false,Rx,0,6,00,00,00,00,00,3D,00,00,
4295486895,00000024,false,Rx,0,8,02,01,01,F4,62,19,81,20,
4295489450,00000245,false,Rx,0,5,00,00,00,00,4C,00,00,00,
4295491621,000000AA,false,Rx,0,8,1A,6F,1A,6F,1A,6F,1A,6F,
4295491840,000001AA,false,Rx,0,6,00,00,00,00,00,B1,00,00,
4295492111,00000224,false,Rx,0,8,00,00,00,00,00,00,00,08,
4295492496,00000247,false,Rx,0,5,06,00,FF,00,00,00,00,00,
4295493853,00000260,false,Rx,0,8,00,00,01,00,00,00,00,6B,
4295495645,00000127,false,Rx,0,8,00,10,00,08,00,0E,FE,54,
4295499372,00000020,false,Rx,0,7,20,00,07,01,00,00,4F,00,
4295499377,00000230,false,Rx,0,7,00,02,02,01,00,00,3E,00,
4295499382,00000025,false,Rx,0,8,A2,37,98,00,FF,FF,FF,9B,
4295499388,00000024,false,Rx,0,8,02,01,01,F4,62,19,80,1F,
4295499393,0000032A,false,Rx,0,2,00,2F,00,00,00,00,00,00,
4295500819,00000361,false,Rx,0,8,80,00,00,00,20,00,00,88,
4295503748,000000AA,false,Rx,0,8,1A,6F,1A,6F,1A,6F,1A,6F,
4295503911,00000232,false,Rx,0,4,00,00,00,38,00,00,00,00,
4295504128,00000320,false,Rx,0,8,44,20,04,00,FF,00,00,92,
4295504344,00000351,false,Rx,0,4,00,00,00,00,00,00,00,00,
4295504730,000001C4,false,Rx,0,8,00,00,00,00,00,00,00,CD,
4295507013,0000045F,false,Rx,0,8,40,02,00,00,01,00,00,00,
4295509728,00000020,false,Rx,0,7,20,00,07,01,00,00,4F,00,
4295509948,000000B4,false,Rx,0,8,00,00,00,00,00,00,00,BC,
4295510219,00000025,false,Rx,0,8,A2,37,98,00,FF,FF,FF,9B,
4295510382,00000235,false,Rx,0,6,00,00,00,00,00,3D,00,00,
4295510659,00000024,false,Rx,0,8,02,02,01,F4,62,19,80,20,
4295512018,00000127,false,Rx,0,8,00,10,00,08,00,0E,FE,54,
4295512998,00000245,false,Rx,0,5,00,00,00,00,4C,00,00,00,
4295514086,00000260,false,Rx,0,8,00,00,02,00,00,00,00,6C,
4295515775,000000AA,false,Rx,0,8,1A,6F,1A,6F,1A,6F,1A,6F,
4295515938,000000B6,false,Rx,0,4,00,00,00,BA,00,00,00,00,
4295516155,00000224,false,Rx,0,8,00,00,00,00,00,00,00,08,
4295516371,00000247,false,Rx,0,5,06,00,FF,00,00,00,00,00,
4295520598,00000262,false,Rx,0,5,21,00,00,00,8A,00,00,00,
4295521741,00000020,false,Rx,0,7,20,00,07,01,00,00,4F,00,
4295521958,00000230,false,Rx,0,7,00,02,02,01,00,00,3E,00,
4295522175,00000025,false,Rx,0,8,A2,37,98,00,FF,FF,FF,9B,
4295522453,000003B7,false,Rx,0,8,00,07,00,00,00,00,00,00,
4295522781,00000024,false,Rx,0,8,02,01,01,F4,62,19,81,20,
4295527783,000000AA,false,Rx,0,8,1A,6F,1A,6F,1A,6F,1A,6F,
4295527947,00000232,false,Rx,0,4,00,00,00,38,00,00,00,00,
4295528271,000001C4,false,Rx,0,8,00,00,00,00,00,00,00,CD,
4295528495,00000127,false,Rx,0,8,00,10,00,08,00,0E,FE,54,
4295530885,000003A5,false,Rx,0,8,00,00,00,00,00,00,20,00,
4295533765,00000020,false,Rx,0,7,20,00,07,01,00,00,4F,00,
4295533981,000000B4,false,Rx,0,8,00,00,00,00,00,00,00,BC,
4295534252,00000025,false,Rx,0,8,A2,37,98,00,FF,FF,FF,9B,
4295534415,00000235,false,Rx,0,6,00,00,00,00,00,3D,00,00,
4295534692,00000260,false,Rx,0,8,00,00,01,00,00,00,00,6B,
4295535020,00000024,false,Rx,0,8,02,02,01,F4,62,19,80,20,
4295536544,00000245,false,Rx,0,5,00,00,00,00,4C,00,00,00,
4295539617,00000247,false,Rx,0,5,06,00,FF,00,00,00,00,00,
4295539838,000000AA,false,Rx,0,8,1A,6F,1A,6F,1A,6F,1A,6F,
4295540055,000001AA,false,Rx,0,6,00,00,00,00,00,B1,00,00,
4295540271,00000224,false,Rx,0,8,00,00,00,00,00,00,00,08,
4295544780,00000127,false,Rx,0,8,00,10,00,08,00,0E,FE,54,
4295545759,00000020,false,Rx,0,7,20,00,07,01,00,00,4F,00,
4295545975,00000230,false,Rx,0,7,00,02,02,01,00,00,3E,00,
4295546246,00000025,false,Rx,0,8,A2,37,98,00,FF,FF,FF,9B,
4295546462,00000024,false,Rx,0,8,02,01,01,F4,62,19,7F,1E,
4295546579,0000032A,false,Rx,0,2,00,2F,00,00,00,00,00,00,
4295551841,000001C4,false,Rx,0,8,00,00,00,00,00,00,00,CD,
4295552058,000000AA,false,Rx,0,8,1A,6F,1A,6F,1A,6F,1A,6F,
4295552221,00000232,false,Rx,0,4,00,00,00,38,00,00,00,00,
4295552437,00000320,false,Rx,0,8,44,20,04,00,FF,00,00,92,
4295554502,00000260,false,Rx,0,8,00,00,02,00,00,00,00,6C,
4295559424,00000020,false,Rx,0,7,20,00,07,01,00,00,4F,00,
4295559429,000000B4,false,Rx,0,8,00,00,00,00,00,00,00,BC,
4295559434,00000025,false,Rx,0,8,A2,37,98,00,FF,FF,FF,9B,
4295559440,00000024,false,Rx,0,8,02,02,01,F4,62,19,80,20,
4295559445,00000235,false,Rx,0,6,00,00,00,00,00,3D,00,00,
4295559558,00000262,false,Rx,0,5,21,00,00,00,8A,00,00,00,
4295560100,00000245,false,Rx,0,5,00,00,00,00,4C,00,00,00,
4295560865,00000413,false,Rx,0,8,01,01,01,09,00,00,00,00,
4295561189,00000127,false,Rx,0,8,00,10,00,08,00,0E,FE,54,
4295563282,00000247,false,Rx,0,5,06,00,FF,00,00,00,00,00,
4295564001,000000AA,false,Rx,0,8,1A,6F,1A,6F,1A,6F,1A,6F,
4295564164,000000B6,false,Rx,0,4,00,00,00,BA,00,00,00,00,
4295564441,00000224,false,Rx,0,8,00,00,00,00,00,00,00,08,
4295564604,00000351,false,Rx,0,4,00,00,00,00,00,00,00,00,
4295565307,00000361,false,Rx,0,8,80,00,00,00,20,00,00,88,
4295570035,00000020,false,Rx,0,7,20,00,07,01,00,00,4F,00,
4295570252,00000230,false,Rx,0,7,00,02,02,01,00,00,3E,00,
4295570470,00000025,false,Rx,0,8,A2,37,98,00,FF,FF,FF,9B,
4295570904,00000024,false,Rx,0,8,02,01,01,F4,62,19,80,1F,
4295571121,00000611,false,Rx,0,8,21,00,00,25,00,02,36,30,
4295574760,00000260,false,Rx,0,8,00,00,02,00,00,00,00,6C,
4295575353,000001C4,false,Rx,0,8,00,00,00,00,00,00,00,CD,
4295576009,000000AA,false,Rx,0,8,1A,6F,1A,6F,1A,6F,1A,6F,
4295576226,00000232,false,Rx,0,4,00,00,00,38,00,00,00,00,
4295580660,00000127,false,Rx,0,8,00,10,00,08,00,0E,FE,54,
4295582086,00000020,false,Rx,0,7,20,00,07,01,00,00,4F,00,
4295582357,000000B4,false,Rx,0,8,00,00,00,00,00,00,00,BC,
4295582581,00000025,false,Rx,0,8,A2,37,98,00,FF,FF,FF,9B,
4295582800,00000235,false,Rx,0,6,00,00,00,00,00,3D,00,00,
4295583177,00000024,false,Rx,0,8,02,01,01,F4,62,19,7F,1E,
4295583670,00000245,false,Rx,0,5,00,00,00,00,4C,00,00,00,
4295586764,00000247,false,Rx,0,5,06,00,FF,00,00,00,00,00,
4295587740,000003B3,false,Rx,0,3,00,00,28,00,00,00,00,00,
4295588118,000000AA,false,Rx,0,8,1A,6F,1A,6F,1A,6F,1A,6F,
4295588335,000001AA,false,Rx,0,6,00,00,00,00,00,B1,00,00,
4295588613,00000224,false,Rx,0,8,00,00,00,00,00,00,00,08,
4295593987,00000127,false,Rx,0,8,00,10,00,08,00,0E,FE,54,
4295594204,00000020,false,Rx,0,7,20,00,07,01,00,00,4F,00,
4295594428,00000230,false,Rx,0,7,00,02,02,01,00,00,3E,00,
4295594645,00000025,false,Rx,0,8,A2,37,98,00,FF,FF,FF,9B,
4295594813,0000032A,false,Rx,0,2,00,2F,00,00,00,00,00,00,
4295595030,00000260,false,Rx,0,8,00,00,01,00,00,00,00,6B,
4295595468,00000024,false,Rx,0,8,02,02,01,F4,62,19,80,20,
4295595847,00000435,false,Rx,0,8,81,0A,05,FF,E0,0F,60,03,
4295600702,000001C4,false,Rx,0,8,00,00,00,00,00,00,00,CD,
4295600707,00000262,false,Rx,0,5,21,00,00,00,8A,00,00,00,
4295600712,000000AA,false,Rx,0,8,1A,6F,1A,6F,1A,6F,1A,6F,
4295600717,00000232,false,Rx,0,4,00,00,00,38,00,00,00,00,
4295600722,00000320,false,Rx,0,8,44,20,04,00,FF,00,00,92,
4295604582,00000440,false,Rx,0,8,42,02,00,00,01,00,00,00,
4295606211,00000020,false,Rx,0,7,20,00,07,01,00,00,4F,00,
4295606435,000000B4,false,Rx,0,8,00,00,00,00,00,00,00,BC,
4295606705,00000025,false,Rx,0,8,A2,37,98,00,FF,FF,FF,9B,
4295606924,00000024,false,Rx,0,8,02,01,01,F4,62,19,80,1F,
4295607141,00000235,false,Rx,0,6,00,00,00,00,00,3D,00,00,
4295607304,00000245,false,Rx,0,5,00,00,00,00,4C,00,00,00,
4295610343,00000127,false,Rx,0,8,00,10,00,08,00,0E,FE,54,
4295610568,00000247,false,Rx,0,5,06,00,FF,00,00,00,00,00,
4295612248,000000AA,false,Rx,0,8,1A,6F,1A,6F,1A,6F,1A,6F,
4295612470,000000B6,false,Rx,0,4,00,00,00,BA,00,00,00,00,
4295612687,00000224,false,Rx,0,8,00,00,00,00,00,00,00,08,
4295615182,00000260,false,Rx,0,8,00,00,02,00,00,00,00,6C,
4295619580,00000020,false,Rx,0,7,20,00,07,01,00,00,4F,00,
4295619585,00000230,false,Rx,0,7,00,02,02,01,00,00,3E,00,
4295619590,00000025,false,Rx,0,8,A2,37,98,00,FF,FF,FF,9B,
4295619596,00000024,false,Rx,0,8,02,01,01,F4,62,19,80,1F,
4295619601,000003F9,false,Rx,0,8,58,5C,56,01,00,00,00,0F,
4295620744,000004DD,false,Rx,0,8,1E,00,00,02,00,00,00,00,
4295622483,000001C4,false,Rx,0,8,00,00,00,00,00,00,00,CD,
4295624388,000000AA,false,Rx,0,8,1A,6F,1A,6F,1A,6F,1A,6F,
4295624555,00000232,false,Rx,0,4,00,00,00,38,00,00,00,00,
4295625202,00000351,false,Rx,0,4,00,00,00,00,00,00,00,00,
4295625913,00000436,false,Rx,0,8,00,00,00,00,00,00,00,00,
4295626728,00000127,false,Rx,0,8,00,10,00,08,00,0E,FE,54,
4295629774,00000361,false,Rx,0,8,80,00,00,00,20,00,00,88,
4295630367,00000020,false,Rx,0,7,20,00,07,01,00,00,4F,00,
4295630645,000000B4,false,Rx,0,8,00,00,00,00,00,00,00,BC,
4295630865,00000025,false,Rx,0,8,A2,37,98,00,FF,FF,FF,9B,
4295631081,00000235,false,Rx,0,6,00,00,00,00,00,3D,00,00,
4295631298,00000024,false,Rx,0,8,02,01,01,F4,62,19,80,1F,
4295631522,00000245,false,Rx,0,5,00,00,00,00,4C,00,00,00,
4295633857,00000247,false,Rx,0,5,06,00,FF,00,00,00,00,00,
4295634891,000006C0,false,Rx,0,8,E4,00,80,A0,00,00,00,00,
4295635438,00000260,false,Rx,0,8,00,00,02,00,00,00,00,6C,
4295636472,000000AA,false,Rx,0,8,1A,6F,1A,6F,1A,6F,1A,6F,
4295636635,000001AA,false,Rx,0,6,00,00,00,00,00,B1,00,00,
4295636907,00000224,false,Rx,0,8,00,00,00,00,00,00,00,08,
4295640795,00000262,false,Rx,0,5,21,00,00,00,8A,00,00,00,
4295642537,00000020,false,Rx,0,7,20,00,07,01,00,00,4F,00,
4295642755,00000230,false,Rx,0,7,00,02,02,01,00,00,3E,00,
4295642972,00000025,false,Rx,0,8,A2,37,98,00,FF,FF,FF,9B,
4295643243,00000127,false,Rx,0,8,00,10,00,08,00,0E,FE,54,
4295643352,0000032A,false,Rx,0,2,00,2F,00,00,00,00,00,00,
4295643574,00000024,false,Rx,0,8,02,01,01,F4,62,19,80,1F,
4295646017,000001C4,false,Rx,0,8,00,00,00,00,00,00,00,CD,
4295648517,000000AA,false,Rx,0,8,1A,6F,1A,6F,1A,6F,1A,6F,
4295648734,00000232,false,Rx,0,4,00,00,00,38,00,00,00,00,
4295648951,00000320,false,Rx,0,8,44,20,04,00,FF,00,00,92,
4295652265,000003BB,false,Rx,0,4,00,00,00,00,00,00,00,00,
4295654327,00000245,false,Rx,0,5,00,00,00,00,4C,00,00,00,
4295654604,00000020,false,Rx,0,7,20,00,07,01,00,00,4F,00,
4295654823,000000B4,false,Rx,0,8,00,00,00,00,00,00,00,BC,
4295655093,00000024,false,Rx,0,8,02,01,01,F4,62,19,80,1F,
4295655310,00000025,false,Rx,0,8,A2,37,98,00,FF,FF,FF,9B,
4295655533,00000235,false,Rx,0,6,00,00,00,00,00,3D,00,00,
4295655750,00000260,false,Rx,0,8,00,00,02,00,00,00,00,6C,
4295656021,00000437,false,Rx,0,8,FC,FF,FF,FF,FF,FF,FF,FF,
4295660823,00000247,false,Rx,0,5,06,00,FF,00,00,00,00,00,
4295660828,00000127,false,Rx,0,8,00,10,00,08,00,0E,FE,54,
4295660834,000000AA,false,Rx,0,8,1A,6F,1A,6F,1A,6F,1A,6F,
4295660839,000000B6,false,Rx,0,4,00,00,00,BA,00,00,00,00,
4295661006,00000224,false,Rx,0,8,00,00,00,00,00,00,00,08,
4295666654,00000020,false,Rx,0,7,20,00,07,01,00,00,4F,00,
4295666874,00000230,false,Rx,0,7,00,02,02,01,00,00,3E,00,
4295667090,00000025,false,Rx,0,8,A2,37,98,00,FF,FF,FF,9B,
4295667361,00000024,false,Rx,0,8,02,01,01,F4,62,19,80,1F,
4295669594,000001C4,false,Rx,0,8,00,00,00,00,00,00,00,CD,
4295670627,000003FA,false,Rx,0,1,00,00,00,00,00,00,00,00,
4295672693,000000AA,false,Rx,0,8,1A,6F,1A,6F,1A,6F,1A,6F,
4295672860,00000232,false,Rx,0,4,00,00,00,38,00,00,00,00,
4295675847,00000260,false,Rx,0,8,00,00,02,00,00,00,00,6C,
4295676064,00000127,false,Rx,0,8,00,10,00,08,00,0E,FE,54,
4295676775,000004A7,false,Rx,0,8,22,00,75,00,70,00,00,00,
4295679681,00000498,false,Rx,0,8,C0,00,00,40,B9,00,00,15,
4295679687,00000245,false,Rx,0,5,00,00,00,00,4C,00,00,00,
4295679692,00000020,false,Rx,0,7,20,00,07,01,00,00,4F,00,
4295679697,000000B4,false,Rx,0,8,00,00,00,00,00,00,00,BC,
4295679702,00000025,false,Rx,0,8,A2,37,98,00,FF,FF,FF,9B,
4295679708,00000235,false,Rx,0,6,00,00,00,00,00,3D,00,00,
4295679713,00000024,false,Rx,0,8,02,02,01,F4,62,19,80,20,
4295679826,0000049C,false,Rx,0,8,A0,05,0A,00,00,00,00,1E,
4295680913,00000262,false,Rx,0,5,21,00,00,00,8A,00,00,00,
4295681129,00000247,false,Rx,0,5,06,00,FF,00,00,00,00,00,
4295681238,00000394,false,Rx,0,1,00,00,00,00,00,00,00,00,
4295684693,000000AA,false,Rx,0,8,1A,6F,1A,6F,1A,6F,1A,6F,
4295684913,000001AA,false,Rx,0,6,00,00,00,00,00,B1,00,00,
4295685130,00000224,false,Rx,0,8,00,00,00,00,00,00,00,08,
4295685893,00000351,false,Rx,0,4,00,00,00,00,00,00,00,00,
4295690670,00000020,false,Rx,0,7,20,00,07,01,00,00,4F,00,
4295690944,00000230,false,Rx,0,7,00,02,02,01,00,00,3E,00,
4295691054,0000032A,false,Rx,0,2,00,2F,00,00,00,00,00,00,
4295691270,00000025,false,Rx,0,8,A2,37,98,00,FF,FF,FF,9B,
4295691710,00000024,false,Rx,0,8,02,01,01,F4,62,19,80,1F,
4295692303,00000127,false,Rx,0,8,00,10,00,08,00,0E,FE,54,
4295693128,000001C4,false,Rx,0,8,00,00,00,00,00,00,00,CD,
4295694324,00000361,false,Rx,0,8,80,00,00,00,20,00,00,88,
4295696120,00000260,false,Rx,0,8,00,00,02,00,00,00,00,6C,
4295696779,000000AA,false,Rx,0,8,1A,6F,1A,6F,1A,6F,1A,6F,
4295696942,00000232,false,Rx,0,4,00,00,00,38,00,00,00,00,
4295697159,00000320,false,Rx,0,8,44,20,04,00,FF,00,00,92,
4295702069,000004A6,false,Rx,0,8,4C,80,0F,0F,0F,0F,08,00,
4295702074,00000442,false,Rx,0,8,43,02,00,00,04,00,00,00,
4295702080,00000245,false,Rx,0,5,00,00,00,00,4C,00,00,00,
4295702738,00000020,false,Rx,0,7,20,00,07,01,00,00,4F,00,
4295702955,000000B4,false,Rx,0,8,00,00,00,00,00,00,00,BC,
4295703225,00000024,false,Rx,0,8,02,01,01,F4,62,19,80,1F,
4295703449,00000025,false,Rx,0,8,A2,37,98,00,FF,FF,FF,9B,
4295703666,00000235,false,Rx,0,6,00,00,00,00,00,3D,00,00,
4295704537,00000247,false,Rx,0,5,06,00,FF,00,00,00,00,00,
4295708661,00000127,false,Rx,0,8,00,10,00,08,00,0E,FE,54,
4295708879,000000AA,false,Rx,0,8,1A,6F,1A,6F,1A,6F,1A,6F,
4295709096,000000B6,false,Rx,0,4,00,00,00,BA,00,00,00,00,
4295709312,00000224,false,Rx,0,8,00,00,00,00,00,00,00,08,
4295714800,00000020,false,Rx,0,7,20,00,07,01,00,00,4F,00,
4295715017,00000230,false,Rx,0,7,00,02,02,01,00,00,3E,00,
4295715233,00000025,false,Rx,0,8,A2,37,98,00,FF,FF,FF,9B,
4295715511,00000024,false,Rx,0,8,02,01,01,F4,62,19,80,1F,
4295716321,00000260,false,Rx,0,8,00,00,01,00,00,00,00,6B,
4295716706,000001C4,false,Rx,0,8,00,00,00,00,00,00,00,CD,
4295720809,000000AA,false,Rx,0,8,1A,6F,1A,6F,1A,6F,1A,6F,
4295720971,00000232,false,Rx,0,4,00,00,00,38,00,00,00,00,
4295721188,00000262,false,Rx,0,5,21,00,00,00,8A,00,00,00,
4295725052,00000127,false,Rx,0,8,00,10,00,08,00,0E,FE,54,
4295725268,00000245,false,Rx,0,5,00,00,00,00,4C,00,00,00,
4295726847,00000020,false,Rx,0,7,20,00,07,01,00,00,4F,00,
4295727064,000000B4,false,Rx,0,8,00,00,00,00,00,00,00,BC,
4295727335,00000025,false,Rx,0,8,A2,37,98,00,FF,FF,FF,9B,
4295727559,00000024,false,Rx,0,8,02,01,01,F4,62,1A,80,20,
4295727778,00000235,false,Rx,0,6,00,00,00,00,00,3D,00,00,
4295728048,00000247,false,Rx,0,5,06,00,FF,00,00,00,00,00,
4295732827,000000AA,false,Rx,0,8,1A,6F,1A,6F,1A,6F,1A,6F,
4295733044,000001AA,false,Rx,0,6,00,00,00,00,00,B1,00,00,
4295733315,00000224,false,Rx,0,8,00,00,00,00,00,00,00,08,
4295736576,00000260,false,Rx,0,8,00,00,02,00,00,00,00,6C,
4295739754,00000020,false,Rx,0,7,20,00,07,01,00,00,4F,00,
4295739759,00000230,false,Rx,0,7,00,02,02,01,00,00,3E,00,
4295739764,00000025,false,Rx,0,8,A2,37,98,00,FF,FF,FF,9B,
4295739770,0000032A,false,Rx,0,2,00,2F,00,00,00,00,00,00,
4295739883,00000024,false,Rx,0,8,02,01,01,F5,62,1A,80,21,
4295740261,000001C4,false,Rx,0,8,00,00,00,00,00,00,00,CD,
4295741462,00000127,false,Rx,0,8,00,10,00,08,00,0E,FE,54,
4295744881,000000AA,false,Rx,0,8,1A,6F,1A,6F,1A,6F,1A,6F,
4295745044,00000232,false,Rx,0,4,00,00,00,38,00,00,00,00,
4295745314,00000320,false,Rx,0,8,44,20,04,00,00,00,00,93,
4295746625,00000351,false,Rx,0,4,00,00,00,00,00,00,00,00,
4295748579,00000245,false,Rx,0,5,00,00,00,00,4C,00,00,00,
4295751018,00000020,false,Rx,0,7,20,00,07,01,00,00,4F,00,
4295751235,000000B4,false,Rx,0,8,00,00,00,00,00,00,00,BC,
4295751507,00000025,false,Rx,0,8,A2,37,98,00,FF,FF,FF,9B,
4295751670,00000235,false,Rx,0,6,00,00,00,00,00,3D,00,00,
4295751888,00000247,false,Rx,0,5,06,00,FF,00,00,00,00,00,
4295752158,00000024,false,Rx,0,8,02,02,01,F5,62,1A,80,22,
4295756779,00000260,false,Rx,0,8,00,00,02,00,00,00,00,6C,
4295757050,000000AA,false,Rx,0,8,1A,6F,1A,6F,1A,6F,1A,6F,
4295757212,000000B6,false,Rx,0,4,00,00,00,BA,00,00,00,00,
4295761027,00000224,false,Rx,0,8,00,00,00,00,00,00,00,08,
4295761033,00000127,false,Rx,0,8,00,10,00,08,00,0E,FE,54,
4295761038,00000361,false,Rx,0,8,80,00,00,00,20,00,00,88,
4295761806,00000262,false,Rx,0,5,21,00,00,00,8A,00,00,00,
4295763001,00000020,false,Rx,0,7,20,00,07,01,00,00,4F,00,
4295763218,00000230,false,Rx,0,7,00,02,02,01,00,00,3E,00,
4295763495,00000025,false,Rx,0,8,A2,37,98,00,FF,FF,FF,9B,
4295763712,00000024,false,Rx,0,8,02,01,01,F5,62,1A,80,21,
4295763930,000001C4,false,Rx,0,8,00,00,00,00,00,00,00,CD,
4295767079,000003BC,false,Rx,0,8,00,20,00,00,00,01,00,00,
4295768981,000000AA,false,Rx,0,8,1A,6F,1A,6F,1A,6F,1A,6F,
4295769198,00000232,false,Rx,0,4,00,00,00,38,00,00,00,00,
4295769801,00000620,false,Rx,0,8,10,00,00,26,B0,00,00,50,
4295772134,00000245,false,Rx,0,5,00,00,00,00,4C,00,00,00,
4295774250,00000127,false,Rx,0,8,00,10,00,08,00,0E,FE,54,
4295775066,00000020,false,Rx,0,7,20,00,07,01,00,00,4F,00,
4295775283,000000B4,false,Rx,0,8,00,00,00,00,00,00,00,BC,
4295775507,00000025,false,Rx,0,8,A2,37,98,00,FF,FF,FF,9B,
4295775781,00000024,false,Rx,0,8,02,02,01,F5,62,1A,80,22,
4295775998,00000235,false,Rx,0,6,00,00,00,00,00,3D,00,00,
4295776161,00000247,false,Rx,0,5,06,00,FF,00,00,00,00,00,
4295776439,000004A0,false,Rx,0,8,06,BA,00,00,00,00,00,00,
4295776655,000004A1,false,Rx,0,8,FE,05,80,DE,80,20,C1,42,
4295776927,000004A2,false,Rx,0,8,19,00,00,C7,00,37,BB,01,
4295777144,00000260,false,Rx,0,8,00,00,01,00,00,00,00,6B,
4295781091,000000AA,false,Rx,0,8,1A,6F,1A,6F,1A,6F,1A,6F,
4295781204,000001AA,false,Rx,0,6,00,00,00,00,00,B1,00,00,
4295781481,00000224,false,Rx,0,8,00,00,00,00,00,00,00,08,
4295787050,00000020,false,Rx,0,7,20,00,07,01,00,00,4F,00,
4295787266,00000230,false,Rx,0,7,00,02,02,01,00,00,3E,00,
4295787490,00000025,false,Rx,0,8,A2,37,98,00,FF,FF,FF,9B,
4295787764,000001C4,false,Rx,0,8,00,00,00,00,00,00,00,CD,
4295787981,00000024,false,Rx,0,8,02,02,01,F5,62,1A,80,22,
4295788144,0000032A,false,Rx,0,2,00,2F,00,00,00,00,00,00,
4295788360,000004C8,false,Rx,0,8,09,00,00,01,00,00,00,00,
4295790594,00000127,false,Rx,0,8,00,10,00,08,00,0E,FE,54,
4295793089,000000AA,false,Rx,0,8,1A,6F,1A,6F,1A,6F,1A,6F,
4295793252,00000232,false,Rx,0,4,00,00,00,38,00,00,00,00,
4295793529,00000320,false,Rx,0,8,44,20,04,00,00,00,00,93,
4295795702,00000245,false,Rx,0,5,00,00,00,00,4C,00,00,00,
4295797219,00000260,false,Rx,0,8,00,00,02,00,00,00,00,6C,
4295799947,00000247,false,Rx,0,5,06,00,FF,00,00,00,00,00,
4295799953,00000020,false,Rx,0,7,20,00,07,01,00,00,4F,00,
4295799958,000000B4,false,Rx,0,8,00,00,00,00,00,00,00,BC,
4295799963,00000025,false,Rx,0,8,A2,37,98,00,FF,FF,FF,9B,
4295799968,00000235,false,Rx,0,6,00,00,00,00,00,3D,00,00,
4295800297,00000024,false,Rx,0,8,02,02,01,F5,62,1A,80,22,
4295800955,00000443,false,Rx,0,8,4D,02,00,2F,06,00,00,00,
4295802256,00000262,false,Rx,0,5,21,00,00,00,8A,00,00,00,
4295805083,000000AA,false,Rx,0,8,1A,6F,1A,6F,1A,6F,1A,6F,
4295805300,000000B6,false,Rx,0,4,00,00,00,BA,00,00,00,00,
4295805524,00000224,false,Rx,0,8,00,00,00,00,00,00,00,08,
4295806988,00000127,false,Rx,0,8,00,10,00,08,00,0E,FE,54,
4295807259,00000351,false,Rx,0,4,00,00,00,00,00,00,00,00,
4295809814,00000621,false,Rx,0,8,11,00,00,00,00,00,00,00,
4295810901,000001C4,false,Rx,0,8,00,00,00,00,00,00,00,CD,
4295811117,00000020,false,Rx,0,7,20,00,07,01,00,00,4F,00,
4295811334,00000230,false,Rx,0,7,00,02,02,01,00,00,3E,00,
4295811611,00000025,false,Rx,0,8,A2,37,98,00,FF,FF,FF,9B,
4295811831,00000024,false,Rx,0,8,02,02,01,F5,62,1A,80,22,
4295817235,000000AA,false,Rx,0,8,1A,6F,1A,6F,1A,6F,1A,6F,
4295817399,00000232,false,Rx,0,4,00,00,00,38,00,00,00,00,
4295821128,00000260,false,Rx,0,8,00,00,01,00,00,00,00,6B,
4295821133,00000622,false,Rx,0,8,12,00,00,00,00,00,00,00,
4295821138,00000245,false,Rx,0,5,00,00,00,00,4C,00,00,00,
4295822281,00000247,false,Rx,0,5,06,00,FF,00,00,00,00,00,
4295823154,00000020,false,Rx,0,7,20,00,07,01,00,00,4F,00,
4295823379,000000B4,false,Rx,0,8,00,00,00,00,00,00,00,BC,
4295823604,00000025,false,Rx,0,8,A2,37,98,00,FF,FF,FF,9B,
4295823877,00000024,false,Rx,0,8,02,02,01,F5,62,1A,80,22,
4295824094,00000235,false,Rx,0,6,00,00,00,00,00,3D,00,00,
4295824311,00000361,false,Rx,0,8,80,00,00,00,20,00,00,88,
4295824536,000003B7,false,Rx,0,8,00,07,00,00,00,00,00,00,
4295824808,00000127,false,Rx,0,8,00,10,00,08,00,0E,FE,54,
4295828170,00000623,false,Rx,0,8,19,00,00,00,00,00,00,00,
4295829256,000000AA,false,Rx,0,8,1A,6F,1A,6F,1A,6F,1A,6F,
4295829472,000001AA,false,Rx,0,6,00,00,00,00,00,B1,00,00,
4295829752,00000224,false,Rx,0,8,00,00,00,00,00,00,00,08,
4295831160,000003E0,false,Rx,0,8,05,71,00,00,0F,82,80,00,
4295834478,000001C4,false,Rx,0,8,00,00,00,00,00,00,00,CD,
4295835236,00000020,false,Rx,0,7,20,00,07,01,00,00,4F,00,
4295835459,00000230,false,Rx,0,7,00,02,02,01,00,00,3E,00,
4295835730,00000025,false,Rx,0,8,A2,37,98,00,FF,FF,FF,9B,
4295835841,0000032A,false,Rx,0,2,00,2F,00,00,00,00,00,00,
4295836111,00000024,false,Rx,0,8,02,02,01,F5,62,1A,80,22,
4295837361,00000624,false,Rx,0,8,1A,00,41,00,49,40,FF,00,
4295841145,00000260,false,Rx,0,8,00,00,02,00,00,00,00,6C,
4295841150,00000127,false,Rx,0,8,00,10,00,08,00,0E,FE,54,
4295841317,000000AA,false,Rx,0,8,1A,6F,1A,6F,1A,6F,1A,6F,
4295841487,00000232,false,Rx,0,4,00,00,00,38,00,00,00,00,
4295841704,00000320,false,Rx,0,8,44,20,04,00,00,00,00,93,
4295842576,00000262,false,Rx,0,5,21,00,00,00,8A,00,00,00,
4295842797,00000245,false,Rx,0,5,00,00,00,00,4C,00,00,00,
4295845891,00000247,false,Rx,0,5,06,00,FF,00,00,00,00,00,
4295846598,00000638,false,Rx,0,8,13,00,0F,00,AA,00,00,00,
4295847301,00000020,false,Rx,0,7,20,00,07,01,00,00,4F,00,
4295847524,000000B4,false,Rx,0,8,00,00,00,00,00,00,00,BC,
4295847795,00000025,false,Rx,0,8,A2,37,98,00,FF,FF,FF,9B,
4295848012,00000235,false,Rx,0,6,00,00,00,00,00,3D,00,00,
4295848390,00000024,false,Rx,0,8,02,01,01,F5,62,1A,80,21,
4295853330,000000AA,false,Rx,0,8,1A,6F,1A,6F,1A,6F,1A,6F,
4295853500,000000B6,false,Rx,0,4,00,00,00,BA,00,00,00,00,
4295853773,00000224,false,Rx,0,8,00,00,00,00,00,00,00,08,
4295855787,00000639,false,Rx,0,8,14,00,02,00,00,00,00,00,
4295856166,00000127,false,Rx,0,8,00,10,00,08,00,0E,FE,54,
4295860009,00000260,false,Rx,0,8,00,00,02,00,00,00,00,6C,
4295860014,000001C4,false,Rx,0,8,00,00,00,00,00,00,00,CD,
4295860020,00000020,false,Rx,0,7,20,00,07,01,00,00,4F,00,
4295860025,00000230,false,Rx,0,7,00,02,02,01,00,00,3E,00,
4295860030,00000025,false,Rx,0,8,A2,37,98,00,FF,FF,FF,9B,
4295860687,00000024,false,Rx,0,8,02,01,01,F5,62,1A,80,21,
4295865406,000000AA,false,Rx,0,8,1A,6F,1A,6F,1A,6F,1A,6F,
4295865576,00000232,false,Rx,0,4,00,00,00,38,00,00,00,00,
4295866385,00000245,false,Rx,0,5,00,00,00,00,4C,00,00,00,
4295867910,00000351,false,Rx,0,4,00,00,00,00,00,00,00,00,
4295869432,00000247,false,Rx,0,5,06,00,FF,00,00,00,00,00,
4295869648,000003F9,false,Rx,0,8,58,5C,56,01,00,00,00,0F,
4295871440,00000020,false,Rx,0,7,20,00,07,01,00,00,4F,00,
4295871711,000000B4,false,Rx,0,8,00,00,00,00,00,00,00,BC,
4295871928,00000025,false,Rx,0,8,A2,37,98,00,FF,FF,FF,9B,
4295872199,00000024,false,Rx,0,8,02,02,01,F5,62,1A,80,22,
4295872362,00000235,false,Rx,0,6,00,00,00,00,00,3D,00,00,
4295872639,00000499,false,Rx,0,8,D2,00,37,80,00,00,00,00,
4295872860,00000127,false,Rx,0,8,00,10,00,08,00,0E,FE,54,
4295874871,0000063B,false,Rx,0,8,16,00,3A,F6,00,00,14,B3,
4295877424,000000AA,false,Rx,0,8,1A,6F,1A,6F,1A,6F,1A,6F,
4295881234,000001AA,false,Rx,0,6,00,00,00,00,00,B1,00,00,
4295881239,00000224,false,Rx,0,8,00,00,00,00,00,00,00,08,
4295881245,00000260,false,Rx,0,8,00,00,02,00,00,00,00,6C,
4295881250,0000049A,false,Rx,0,8,00,13,A1,00,51,40,32,A8,
4295881585,000001C4,false,Rx,0,8,00,00,00,00,00,00,00,CD,
4295882837,0000049B,false,Rx,0,8,00,A0,23,20,08,00,40,00,
4295883161,00000262,false,Rx,0,5,21,00,00,00,8A,00,00,00,
4295883487,00000020,false,Rx,0,7,20,00,07,01,00,00,4F,00,
4295883704,00000230,false,Rx,0,7,00,02,02,01,00,00,3E,00,
4295883925,00000025,false,Rx,0,8,A2,37,98,00,FF,FF,FF,9B,
4295884087,0000032A,false,Rx,0,2,00,2F,00,00,00,00,00,00,
4295884303,00000024,false,Rx,0,8,02,02,01,F5,62,1A,80,22,
4295884797,00000680,false,Rx,0,8,D8,00,01,00,00,00,00,00,
4295887911,00000361,false,Rx,0,8,80,00,00,00,20,00,00,88,
4295888127,0000049D,false,Rx,0,8,66,65,00,C2,81,0A,37,80,
4295888960,00000127,false,Rx,0,8,00,10,00,08,00,0E,FE,54,
4295889507,000000AA,false,Rx,0,8,1A,6F,1A,6F,1A,6F,1A,6F,
4295889670,00000232,false,Rx,0,4,00,00,00,38,00,00,00,00,
4295889945,00000320,false,Rx,0,8,44,20,04,00,00,00,00,93,
4295890107,00000245,false,Rx,0,5,00,00,00,00,4C,00,00,00,
4295890818,00000610,false,Rx,0,8,20,00,00,64,C0,FF,FD,74,
4295892013,000004A8,false,Rx,0,8,00,07,80,00,00,00,00,04,
4295892993,00000247,false,Rx,0,5,06,00,FF,00,00,00,00,00,
4295893755,000003B9,false,Rx,0,3,A0,00,00,00,00,00,00,00,
4295895546,00000020,false,Rx,0,7,20,00,07,01,00,00,4F,00,
4295895764,000000B4,false,Rx,0,8,00,00,00,00,00,00,00,BC,
4295896035,00000025,false,Rx,0,8,A2,37,98,00,FF,FF,FF,9B,
4295896252,00000235,false,Rx,0,6,00,00,00,00,00,3D,00,00,
4295896530,00000024,false,Rx,0,8,02,02,01,F4,62,1A,80,21,
4295902474,00000260,false,Rx,0,8,00,00,01,00,00,00,00,6B,
4295902479,0000044D,false,Rx,0,8,5C,02,00,00,00,00,00,00,
4295902485,0000049E,false,Rx,0,8,00,80,00,C0,01,B8,02,4B,
4295902490,000000AA,false,Rx,0,8,1A,6F,1A,6F,1A,6F,1A,6F,
4295902495,000000B6,false,Rx,0,4,00,00,00,BA,00,00,00,00,
4295902500,00000224,false,Rx,0,8,00,00,00,00,00,00,00,08,
4295904291,0000049F,false,Rx,0,8,00,44,D0,00,00,00,00,00,
4295905109,000001C4,false,Rx,0,8,00,00,00,00,00,00,00,CD,
4295905380,00000127,false,Rx,0,8,00,10,00,08,00,0E,FE,54,
4295907558,00000020,false,Rx,0,7,20,00,07,01,00,00,4F,00,
4295907776,00000230,false,Rx,0,7,00,02,02,01,00,00,3E,00,
4295908047,00000025,false,Rx,0,8,A2,37,98,00,FF,FF,FF,9B,
4295908810,00000024,false,Rx,0,8,02,02,01,F4,62,1A,80,21,
4295913479,00000245,false,Rx,0,5,00,00,00,00,4C,00,00,00,
4295913695,000000AA,false,Rx,0,8,1A,6F,1A,6F,1A,6F,1A,6F,
4295913859,00000232,false,Rx,0,4,00,00,00,38,00,00,00,00,
4295915868,000004C6,false,Rx,0,8,07,00,02,00,00,00,00,00,
4295916522,00000247,false,Rx,0,5,06,00,FF,00,00,00,00,00,
4295920139,00000260,false,Rx,0,8,00,00,02,00,00,00,00,6C,
4295920144,00000020,false,Rx,0,7,20,00,07,01,00,00,4F,00,
4295920149,000000B4,false,Rx,0,8,00,00,00,00,00,00,00,BC,
4295920155,00000025,false,Rx,0,8,A2,37,98,00,FF,FF,FF,9B,
4295920322,00000024,false,Rx,0,8,02,01,01,F4,62,19,81,20,
4295920491,00000235,false,Rx,0,6,00,00,00,00,00,3D,00,00,
4295921738,00000127,false,Rx,0,8,00,10,00,08,00,0E,FE,54,
4295922716,0000039B,false,Rx,0,5,00,00,00,00,00,00,00,00,
4295923650,00000262,false,Rx,0,5,21,00,00,00,8A,00,00,00,
4295925661,000000AA,false,Rx,0,8,1A,6F,1A,6F,1A,6F,1A,6F,
4295925879,000001AA,false,Rx,0,6,00,00,00,00,00,B1,00,00,
4295926096,00000224,false,Rx,0,8,00,00,00,00,00,00,00,08,
4295926366,00000420,false,Rx,0,8,00,14,00,14,FD,FC,00,4D,
4295928705,000001C4,false,Rx,0,8,00,00,00,00,00,00,00,CD,
4295928871,00000351,false,Rx,0,4,00,00,00,00,00,00,00,00,
4295930987,000003B6,false,Rx,0,8,00,00,02,10,00,00,03,00,
4295931640,00000020,false,Rx,0,7,20,00,07,01,00,00,4F,00,
4295931859,00000230,false,Rx,0,7,00,02,02,01,00,00,3E,00,
4295932076,00000025,false,Rx,0,8,A2,37,98,00,FF,FF,FF,9B,
4295932184,0000032A,false,Rx,0,2,00,2F,00,00,00,00,00,00,
4295932462,00000024,false,Rx,0,8,02,02,01,F4,62,19,80,20,
4295934686,000006C0,false,Rx,0,8,E4,00,80,A0,00,00,00,00,
4295937018,00000245,false,Rx,0,5,00,00,00,00,4C,00,00,00,
4295937672,000000AA,false,Rx,0,8,1A,6F,1A,6F,1A,6F,1A,6F,
4295941342,00000232,false,Rx,0,4,00,00,00,38,00,00,00,00,
4295941347,00000320,false,Rx,0,8,44,20,04,00,00,00,00,93,
4295941352,00000127,false,Rx,0,8,00,10,00,08,00,0E,FE,54,
4295941357,00000260,false,Rx,0,8,00,00,01,00,00,00,00,6B,
4295941363,00000247,false,Rx,0,5,06,00,FF,00,00,00,00,00,
4295943603,00000020,false,Rx,0,7,20,00,07,01,00,00,4F,00,
4295943877,000000B4,false,Rx,0,8,00,00,00,00,00,00,00,BC,
4295944094,00000025,false,Rx,0,8,A2,37,98,00,FF,FF,FF,9B,
4295944311,00000235,false,Rx,0,6,00,00,00,00,00,3D,00,00,
4295944642,00000024,false,Rx,0,8,02,01,01,F4,62,19,80,1F,
4295947352,0000042F,false,Rx,0,8,00,00,00,00,00,00,00,00,
4295948385,00000421,false,Rx,0,8,00,00,00,00,00,00,00,00,
4295949364,0000038B,false,Rx,0,7,00,00,00,00,00,00,00,00,
4295949694,000000AA,false,Rx,0,8,1A,6F,1A,6F,1A,6F,1A,6F,
4295949859,000000B6,false,Rx,0,4,00,00,00,BA,00,00,00,00,
4295950130,00000224,false,Rx,0,8,00,00,00,00,00,00,00,08,
4295952247,000001C4,false,Rx,0,8,00,00,00,00,00,00,00,CD,
4295952470,00000361,false,Rx,0,8,80,00,00,00,20,00,00,88,
4295954532,00000127,false,Rx,0,8,00,10,00,08,00,0E,FE,54,
4295955672,00000020,false,Rx,0,7,20,00,07,01,00,00,4F,00,
4295955891,00000230,false,Rx,0,7,00,02,02,01,00,00,3E,00,
4295956161,00000025,false,Rx,0,8,A2,37,98,00,FF,FF,FF,9B,
4295956981,00000024,false,Rx,0,8,02,01,01,F4,62,19,80,1F,
4295961361,00000260,false,Rx,0,8,00,00,01,00,00,00,00,6B,
4295961366,00000245,false,Rx,0,5,00,00,00,00,4C,00,00,00,
4295961371,0000058E,false,Rx,0,8,00,00,00,00,00,00,00,00,
4295961761,000000AA,false,Rx,0,8,1A,6F,1A,6F,1A,6F,1A,6F,
4295961924,00000232,false,Rx,0,4,00,00,00,38,00,00,00,00,
4295963661,00000247,false,Rx,0,5,06,00,FF,00,00,00,00,00,
4295963880,00000262,false,Rx,0,5,21,00,00,00,8A,00,00,00,
4295967735,00000020,false,Rx,0,7,20,00,07,01,00,00,4F,00,
4295968009,000000B4,false,Rx,0,8,00,00,00,00,00,00,00,BC,
4295968226,00000025,false,Rx,0,8,A2,37,98,00,FF,FF,FF,9B,
4295968503,00000024,false,Rx,0,8,02,02,01,F4,62,19,80,20,
4295968666,00000235,false,Rx,0,6,00,00,00,00,00,3D,00,00,
4295970891,00000127,false,Rx,0,8,00,10,00,08,00,0E,FE,54,
4295971000,000003FA,false,Rx,0,1,00,00,00,00,00,00,00,00,
4295973772,000000AA,false,Rx,0,8,1A,6F,1A,6F,1A,6F,1A,6F,
4295973989,000001AA,false,Rx,0,6,00,00,00,00,00,B1,00,00,
4295974260,00000224,false,Rx,0,8,00,00,00,00,00,00,00,08,
4295975788,000001C4,false,Rx,0,8,00,00,00,00,00,00,00,CD,
4295980263,00000260,false,Rx,0,8,00,00,02,00,00,00,00,6C,
4295980269,00000020,false,Rx,0,7,20,00,07,01,00,00,4F,00,
4295980274,00000230,false,Rx,0,7,00,02,02,01,00,00,3E,00,
4295980279,00000025,false,Rx,0,8,A2,37,98,00,FF,FF,FF,9B,
4295980503,00000024,false,Rx,0,8,02,01,01,F4,62,19,7F,1E,
4295980666,0000032A,false,Rx,0,2,00,2F,00,00,00,00,00,00,
4295980780,000003D3,false,Rx,0,2,00,00,00,00,00,00,00,00,
4295984142,00000245,false,Rx,0,5,00,00,00,00,4C,00,00,00,
4295984251,00000394,false,Rx,0,1,00,00,00,00,00,00,00,00,
4295985777,000000AA,false,Rx,0,8,1A,6F,1A,6F,1A,6F,1A,6F,
4295985940,00000232,false,Rx,0,4,00,00,00,38,00,00,00,00,
4295986210,00000320,false,Rx,0,8,44,20,04,00,00,00,00,93,
4295986811,000003BD,false,Rx,0,1,20,00,00,00,00,00,00,00,
4295987296,00000127,false,Rx,0,8,00,10,00,08,00,0E,FE,54,
4295987466,00000247,false,Rx,0,5,06,00,FF,00,00,00,00,00,
4295989325,00000351,false,Rx,0,4,00,00,00,00,00,00,00,00,
4295991838,00000020,false,Rx,0,7,20,00,07,01,00,00,4F,00,
4295992108,000000B4,false,Rx,0,8,00,00,00,00,00,00,00,BC,
4295992325,00000025,false,Rx,0,8,A2,37,98,00,FF,FF,FF,9B,
4295992548,00000235,false,Rx,0,6,00,00,00,00,00,3D,00,00,
4295992770,00000024,false,Rx,0,8,02,02,01,F4,62,19,80,20,
4296001407,000000AA,false,Rx,0,8,1A,6F,1A,6F,1A,6F,1A,6F,
4296001413,000000B6,false,Rx,0,4,00,00,00,BA,00,00,00,00,
4296001425,00000224,false,Rx,0,8,00,00,00,00,00,00,00,08,
4296001430,000001C4,false,Rx,0,8,00,00,00,00,00,00,00,CD,
4296001435,00000260,false,Rx,0,8,00,00,02,00,00,00,00,6C,
4296002796,0000045C,false,Rx,0,8,5F,02,00,20,08,00,00,00,
4296003665,00000127,false,Rx,0,8,00,10,00,08,00,0E,FE,54,
4296003885,00000020,false,Rx,0,7,20,00,07,01,00,00,4F,00,
4296004102,00000230,false,Rx,0,7,00,02,02,01,00,00,3E,00,
4296004373,00000025,false,Rx,0,8,A2,37,98,00,FF,FF,FF,9B,
4296004543,00000262,false,Rx,0,5,21,00,00,00,8A,00,00,00,
4296005086,00000024,false,Rx,0,8,02,02,01,F4,62,19,80,20,
4296007694,00000245,false,Rx,0,5,00,00,00,00,4C,00,00,00,
4296009816,000000AA,false,Rx,0,8,1A,6F,1A,6F,1A,6F,1A,6F,
4296009980,00000232,false,Rx,0,4,00,00,00,38,00,00,00,00,
4296010741,00000247,false,Rx,0,5,06,00,FF,00,00,00,00,00,
4296015948,00000020,false,Rx,0,7,20,00,07,01,00,00,4F,00,
4296016165,000000B4,false,Rx,0,8,00,00,00,00,00,00,00,BC,
4296016382,00000025,false,Rx,0,8,A2,37,98,00,FF,FF,FF,9B,
4296016659,00000024,false,Rx,0,8,02,02,01,F4,62,19,80,20,
4296016879,00000235,false,Rx,0,6,00,00,00,00,00,3D,00,00,
4296017096,00000361,false,Rx,0,8,80,00,00,00,20,00,00,88,
4296021416,00000260,false,Rx,0,8,00,00,02,00,00,00,00,6C,
4296021429,00000127,false,Rx,0,8,00,10,00,08,00,0E,FE,54,
4296021923,000000AA,false,Rx,0,8,1A,6F,1A,6F,1A,6F,1A,6F,
4296022139,000001AA,false,Rx,0,6,00,00,00,00,00,B1,00,00,
4296022410,00000224,false,Rx,0,8,00,00,00,00,00,00,00,08,
4296022902,000001C4,false,Rx,0,8,00,00,00,00,00,00,00,CD,
4296025032,00000630,false,Rx,0,8,17,00,00,00,00,00,00,00,
4296028018,00000020,false,Rx,0,7,20,00,07,01,00,00,4F,00,
4296028234,00000230,false,Rx,0,7,00,02,02,01,00,00,3E,00,
4296028506,00000025,false,Rx,0,8,A2,37,98,00,FF,FF,FF,9B,
4296028723,00000024,false,Rx,0,8,02,02,01,F4,62,19,80,20,
4296028835,0000032A,false,Rx,0,2,00,2F,00,00,00,00,00,00,
4296031219,00000245,false,Rx,0,5,00,00,00,00,4C,00,00,00,
4296033559,00000632,false,Rx,0,8,80,00,00,00,00,00,00,00,
4296034047,000000AA,false,Rx,0,8,1A,6F,1A,6F,1A,6F,1A,6F,
4296034210,00000232,false,Rx,0,4,00,00,00,38,00,00,00,00,
4296034434,00000247,false,Rx,0,5,06,00,FF,00,00,00,00,00,
4296034651,00000320,false,Rx,0,8,44,20,04,00,00,00,00,93,
4296035901,00000434,false,Rx,0,8,41,40,00,00,01,80,00,00,
4296036448,00000127,false,Rx,0,8,00,10,00,08,00,0E,FE,54,
4296041465,00000260,false,Rx,0,8,00,00,02,00,00,00,00,6C,
4296041470,00000020,false,Rx,0,7,20,00,07,01,00,00,4F,00,
4296041475,000000B4,false,Rx,0,8,00,00,00,00,00,00,00,BC,
4296041481,00000025,false,Rx,0,8,A2,37,98,00,FF,FF,FF,9B,
4296041486,00000235,false,Rx,0,6,00,00,00,00,00,3D,00,00,
4296041491,00000024,false,Rx,0,8,02,02,01,F4,62,19,80,20,
4296042999,00000633,false,Rx,0,8,81,00,00,00,00,00,00,00,
4296044975,00000262,false,Rx,0,5,21,00,00,00,8A,00,00,00,
4296046116,000000AA,false,Rx,0,8,1A,6F,1A,6F,1A,6F,1A,6F,
4296046285,000000B6,false,Rx,0,4,00,00,00,BA,00,00,00,00,
4296046524,000001C4,false,Rx,0,8,00,00,00,00,00,00,00,CD,
4296046795,00000224,false,Rx,0,8,00,00,00,00,00,00,00,08,
4296049996,00000351,false,Rx,0,4,00,00,00,00,00,00,00,00,
4296052005,00000635,false,Rx,0,8,83,00,00,00,00,00,00,00,
4296052222,00000020,false,Rx,0,7,20,00,07,01,00,00,4F,00,
4296052445,00000230,false,Rx,0,7,00,02,02,01,00,00,3E,00,
4296052715,00000025,false,Rx,0,8,A2,37,98,00,FF,FF,FF,9B,
4296052935,00000127,false,Rx,0,8,00,10,00,08,00,0E,FE,54,
4296053205,00000024,false,Rx,0,8,02,02,01,F4,62,19,80,20,
4296054837,00000245,false,Rx,0,5,00,00,00,00,4C,00,00,00,
4296061545,00000247,false,Rx,0,5,06,00,FF,00,00,00,00,00,
4296061550,000000AA,false,Rx,0,8,1A,6F,1A,6F,1A,6F,1A,6F,
4296061556,00000232,false,Rx,0,4,00,00,00,38,00,00,00,00,
4296061561,00000260,false,Rx,0,8,00,00,02,00,00,00,00,6C,
4296064165,00000020,false,Rx,0,7,20,00,07,01,00,00,4F,00,
4296064382,000000B4,false,Rx,0,8,00,00,00,00,00,00,00,BC,
4296064605,00000024,false,Rx,0,8,02,01,01,F4,62,19,80,1F,
4296064879,00000025,false,Rx,0,8,A2,37,98,00,FF,FF,FF,9B,
4296065095,00000235,false,Rx,0,6,00,00,00,00,00,3D,00,00,
4296069220,00000127,false,Rx,0,8,00,10,00,08,00,0E,FE,54,
4296069824,00000620,false,Rx,0,8,10,00,00,26,B0,00,00,50,
4296070095,000001C4,false,Rx,0,8,00,00,00,00,00,00,00,CD,
4296070312,000000AA,false,Rx,0,8,1A,6F,1A,6F,1A,6F,1A,6F,
4296070536,000001AA,false,Rx,0,6,00,00,00,00,00,B1,00,00,
4296070753,00000224,false,Rx,0,8,00,00,00,00,00,00,00,08,
4296071024,000006F0,false,Rx,0,8,2E,00,0F,1E,00,C0,00,00,
4296076341,00000020,false,Rx,0,7,20,00,07,01,00,00,4F,00,
4296076565,00000230,false,Rx,0,7,00,02,02,01,00,00,3E,00,
4296076783,00000025,false,Rx,0,8,A2,37,98,00,FF,FF,FF,9B,
4296077001,00000024,false,Rx,0,8,02,02,01,F4,62,19,80,20,
4296077163,0000032A,false,Rx,0,2,00,2F,00,00,00,00,00,00,
4296081544,00000245,false,Rx,0,5,00,00,00,00,4C,00,00,00,
4296081549,00000260,false,Rx,0,8,00,00,01,00,00,00,00,6B,
4296081555,00000361,false,Rx,0,8,80,00,00,00,20,00,00,88,
4296081668,00000247,false,Rx,0,5,06,00,FF,00,00,00,00,00,
4296082318,000000AA,false,Rx,0,8,1A,6F,1A,6F,1A,6F,1A,6F,
4296082482,00000232,false,Rx,0,4,00,00,00,38,00,00,00,00,
4296082755,00000320,false,Rx,0,8,44,20,04,00,FF,00,00,92,
4296085247,00000262,false,Rx,0,5,21,00,00,00,8A,00,00,00,
4296085578,00000127,false,Rx,0,8,00,10,00,08,00,0E,FE,54,
4296088395,00000020,false,Rx,0,7,20,00,07,01,00,00,4F,00,
4296088672,000000B4,false,Rx,0,8,00,00,00,00,00,00,00,BC,
4296088891,00000025,false,Rx,0,8,A2,37,98,00,FF,FF,FF,9B,
4296089108,00000024,false,Rx,0,8,02,02,01,F4,62,19,80,20,
4296089325,00000235,false,Rx,0,6,00,00,00,00,00,3D,00,00,
4296093536,000001C4,false,Rx,0,8,00,00,00,00,00,00,00,CD,
4296094348,000000AA,false,Rx,0,8,1A,6F,1A,6F,1A,6F,1A,6F,
4296094518,000000B6,false,Rx,0,4,00,00,00,BA,00,00,00,00,
4296094734,00000224,false,Rx,0,8,00,00,00,00,00,00,00,08,
4296100404,00000399,false,Rx,0,7,00,00,00,00,00,00,00,00,
4296100409,000003B3,false,Rx,0,3,00,00,28,00,00,00,00,00,
4296100414,00000020,false,Rx,0,7,20,00,07,01,00,00,4F,00,
4296100642,00000230,false,Rx,0,7,00,02,02,01,00,00,3E,00,
4296100860,00000025,false,Rx,0,8,A2,37,98,00,FF,FF,FF,9B,
4296101131,00000260,false,Rx,0,8,00,00,02,00,00,00,00,6C,
4296101348,00000024,false,Rx,0,8,02,02,01,F4,62,19,80,20,
4296101572,00000614,false,Rx,0,8,29,00,FE,30,00,00,00,00,
4296102005,00000127,false,Rx,0,8,00,10,00,08,00,0E,FE,54,
4296102168,00000245,false,Rx,0,5,00,00,00,00,4C,00,00,00,
4296104996,00000247,false,Rx,0,5,06,00,FF,00,00,00,00,00,
4296106405,000000AA,false,Rx,0,8,1A,6F,1A,6F,1A,6F,1A,6F,
4296106576,00000232,false,Rx,0,4,00,00,00,38,00,00,00,00,
4296106848,0000045F,false,Rx,0,8,40,02,00,00,01,00,00,00,
4296108149,00000381,false,Rx,0,8,00,81,01,10,00,00,00,00,
4296110651,00000351,false,Rx,0,4,00,00,00,00,00,00,00,00,
4296112440,00000020,false,Rx,0,7,20,00,07,01,00,00,4F,00,
4296112710,000000B4,false,Rx,0,8,00,00,00,00,00,00,00,BC,
4296112927,00000025,false,Rx,0,8,A2,37,98,00,FF,FF,FF,9B,
4296113144,00000235,false,Rx,0,6,00,00,00,00,00,3D,00,00,
4296113637,00000024,false,Rx,0,8,02,02,01,F4,62,19,80,20,
4296117112,000001C4,false,Rx,0,8,00,00,00,00,00,00,00,CD,
4296121594,00000127,false,Rx,0,8,00,10,00,08,00,0E,FE,54,
4296121599,000000AA,false,Rx,0,8,1A,6F,1A,6F,1A,6F,1A,6F,
4296121605,000001AA,false,Rx,0,6,00,00,00,00,00,B1,00,00,
4296121610,00000224,false,Rx,0,8,00,00,00,00,00,00,00,08,
4296121615,000003F9,false,Rx,0,8,58,5C,56,01,00,00,00,0F,
4296121620,00000260,false,Rx,0,8,00,00,01,00,00,00,00,6B,
4296124512,00000020,false,Rx,0,7,20,00,07,01,00,00,4F,00,
4296124729,00000230,false,Rx,0,7,00,02,02,01,00,00,3E,00,
4296125002,00000024,false,Rx,0,8,02,02,01,F5,62,1A,80,22,
4296125219,00000025,false,Rx,0,8,A2,37,98,00,FF,FF,FF,9B,
4296125382,0000032A,false,Rx,0,2,00,2F,00,00,00,00,00,00,
4296125551,00000245,false,Rx,0,5,00,00,00,00,4C,00,00,00,
4296125774,000003B7,false,Rx,0,8,00,07,00,00,00,00,00,00,
4296125991,00000262,false,Rx,0,5,21,00,00,00,8A,00,00,00,
4296128543,00000247,false,Rx,0,5,06,00,FF,00,00,00,00,00,
4296130607,000000AA,false,Rx,0,8,1A,6F,1A,6F,1A,6F,1A,6F,
4296130773,00000232,false,Rx,0,4,00,00,00,38,00,00,00,00,
4296130990,00000320,false,Rx,0,8,44,20,04,00,FF,00,00,92,
4296134793,00000127,false,Rx,0,8,00,10,00,08,00,0E,FE,54,
4296136531,00000020,false,Rx,0,7,20,00,07,01,00,00,4F,00,
4296136802,000000B4,false,Rx,0,8,00,00,00,00,00,00,00,BC,
4296137019,00000025,false,Rx,0,8,A2,37,98,00,FF,FF,FF,9B,
4296137237,00000024,false,Rx,0,8,02,02,01,F5,62,1A,80,22,
4296137461,00000235,false,Rx,0,6,00,00,00,00,00,3D,00,00,
4296141615,000001C4,false,Rx,0,8,00,00,00,00,00,00,00,CD,
4296141620,00000260,false,Rx,0,8,00,00,02,00,00,00,00,6C,
4296142656,000000AA,false,Rx,0,8,1A,6F,1A,6F,1A,6F,1A,6F,
4296142823,000000B6,false,Rx,0,4,00,00,00,BA,00,00,00,00,
4296143093,00000224,false,Rx,0,8,00,00,00,00,00,00,00,08,
4296146026,00000361,false,Rx,0,8,80,00,00,00,20,00,00,88,
4296148035,000003B0,false,Rx,0,6,00,76,00,46,00,09,00,00,
4296148743,00000020,false,Rx,0,7,20,00,07,01,00,00,4F,00,
4296148960,00000230,false,Rx,0,7,00,02,02,01,00,00,3E,00,
4296149177,00000025,false,Rx,0,8,A2,37,98,00,FF,FF,FF,9B,
4296149393,00000245,false,Rx,0,5,00,00,00,00,4C,00,00,00,
4296149617,00000024,false,Rx,0,8,02,02,01,F5,62,1A,80,22,
4296151137,00000127,false,Rx,0,8,00,10,00,08,00,0E,FE,54,
4296152116,00000247,false,Rx,0,5,06,00,FF,00,00,00,00,00,
4296154724,000000AA,false,Rx,0,8,1A,6F,1A,6F,1A,6F,1A,6F,
4296154889,00000232,false,Rx,0,4,00,00,00,38,00,00,00,00,
4296160781,00000020,false,Rx,0,7,20,00,07,01,00,00,4F,00,
4296161052,000000B4,false,Rx,0,8,00,00,00,00,00,00,00,BC,
4296161269,00000025,false,Rx,0,8,A2,37,98,00,FF,FF,FF,9B,
4296161492,00000235,false,Rx,0,6,00,00,00,00,00,3D,00,00,
4296161708,00000260,false,Rx,0,8,00,00,02,00,00,00,00,6C,
4296161981,00000024,false,Rx,0,8,02,02,01,F5,62,1A,80,22,
4296164257,000001C4,false,Rx,0,8,00,00,00,00,00,00,00,CD,
4296166375,00000262,false,Rx,0,5,21,00,00,00,8A,00,00,00,
4296166706,000000AA,false,Rx,0,8,1A,6F,1A,6F,1A,6F,1A,6F,
4296166924,000001AA,false,Rx,0,6,00,00,00,00,00,B1,00,00,
4296167194,00000224,false,Rx,0,8,00,00,00,00,00,00,00,08,
4296167580,00000127,false,Rx,0,8,00,10,00,08,00,0E,FE,54,
4296171374,00000351,false,Rx,0,4,00,00,00,00,00,00,00,00,
4296172630,00000245,false,Rx,0,5,00,00,00,00,4C,00,00,00,
4296172848,00000020,false,Rx,0,7,20,00,07,01,00,00,4F,00,
4296173117,00000230,false,Rx,0,7,00,02,02,01,00,00,3E,00,
4296173334,00000025,false,Rx,0,8,A2,37,98,00,FF,FF,FF,9B,
4296173443,0000032A,false,Rx,0,2,00,2F,00,00,00,00,00,00,
4296174046,00000024,false,Rx,0,8,02,02,01,F5,62,1A,80,22,
4296175678,00000247,false,Rx,0,5,06,00,FF,00,00,00,00,00,
4296176493,000004A7,false,Rx,0,8,21,00,75,00,70,00,00,00,
4296177524,00000498,false,Rx,0,8,C0,00,00,40,B9,00,00,15,
4296181676,0000049C,false,Rx,0,8,A0,05,0A,00,00,00,00,1E,
4296181681,000000AA,false,Rx,0,8,1A,6F,1A,6F,1A,6F,1A,6F,
4296181687,00000232,false,Rx,0,4,00,00,00,38,00,00,00,00,
4296181692,00000320,false,Rx,0,8,44,20,04,00,00,00,00,93,
4296181697,000004C3,false,Rx,0,8,03,00,00,00,00,00,00,00,
4296181702,00000260,false,Rx,0,8,00,00,01,00,00,00,00,6B,
4296183931,00000127,false,Rx,0,8,00,10,00,08,00,0E,FE,54,
4296184803,00000020,false,Rx,0,7,20,00,07,01,00,00,4F,00,
4296185074,000000B4,false,Rx,0,8,00,00,00,00,00,00,00,BC,
4296185291,00000025,false,Rx,0,8,A2,37,98,00,FF,FF,FF,9B,
4296185515,00000024,false,Rx,0,8,02,01,01,F5,62,1A,80,21,
4296185731,00000235,false,Rx,0,6,00,00,00,00,00,3D,00,00,
4296187796,000001C4,false,Rx,0,8,00,00,00,00,00,00,00,CD,
4296190727,000000AA,false,Rx,0,8,1A,6F,1A,6F,1A,6F,1A,6F,
4296190945,000000B6,false,Rx,0,4,00,00,00,BA,00,00,00,00,
4296191161,00000224,false,Rx,0,8,00,00,00,00,00,00,00,08,
4296196130,00000245,false,Rx,0,5,00,00,00,00,4C,00,00,00,
4296196846,00000020,false,Rx,0,7,20,00,07,01,00,00,4F,00,
4296197073,00000230,false,Rx,0,7,00,02,02,01,00,00,3E,00,
4296197290,00000025,false,Rx,0,8,A2,37,98,00,FF,FF,FF,9B,
4296197622,00000024,false,Rx,0,8,02,01,01,F5,62,1A,7F,20,
4296197732,00000423,false,Rx,0,1,20,00,00,00,00,00,00,00,
4296201724,00000247,false,Rx,0,5,06,00,FF,00,00,00,00,00,
4296201729,00000127,false,Rx,0,8,00,10,00,08,00,0E,FE,54,
4296201844,00000260,false,Rx,0,8,00,00,02,00,00,00,00,6C,
4296202877,000000AA,false,Rx,0,8,1A,6F,1A,6F,1A,6F,1A,6F,
4296203040,00000232,false,Rx,0,4,00,00,00,38,00,00,00,00,
4296204888,00000440,false,Rx,0,8,42,02,00,00,01,00,00,00,
4296206627,00000262,false,Rx,0,5,21,00,00,00,8A,00,00,00,
4296208857,00000020,false,Rx,0,7,20,00,07,01,00,00,4F,00,
4296209073,000000B4,false,Rx,0,8,00,00,00,00,00,00,00,BC,
4296209344,00000025,false,Rx,0,8,A2,37,98,00,FF,FF,FF,9B,
4296209515,00000235,false,Rx,0,6,00,00,00,00,00,3D,00,00,
4296209894,00000024,false,Rx,0,8,02,01,01,F5,62,1A,80,21,
4296210548,00000361,false,Rx,0,8,80,00,00,00,20,00,00,88,
4296211358,000001C4,false,Rx,0,8,00,00,00,00,00,00,00,CD,
4296214838,000000AA,false,Rx,0,8,1A,6F,1A,6F,1A,6F,1A,6F,
4296215055,000001AA,false,Rx,0,6,00,00,00,00,00,B1,00,00,
4296215324,00000224,false,Rx,0,8,00,00,00,00,00,00,00,08,
4296216686,00000127,false,Rx,0,8,00,10,00,08,00,0E,FE,54,
4296220574,00000245,false,Rx,0,5,00,00,00,00,4C,00,00,00,
4296220851,00000020,false,Rx,0,7,20,00,07,01,00,00,4F,00,
4296221121,00000230,false,Rx,0,7,00,02,02,01,00,00,3E,00,
4296221338,00000024,false,Rx,0,8,02,01,01,F5,62,1A,80,21,
4296221562,00000025,false,Rx,0,8,A2,37,98,00,FF,FF,FF,9B,
4296221725,0000032A,false,Rx,0,2,00,2F,00,00,00,00,00,00,
4296221999,00000260,false,Rx,0,8,00,00,01,00,00,00,00,6B,
4296222815,00000247,false,Rx,0,5,06,00,FF,00,00,00,00,00,
4296226898,000000AA,false,Rx,0,8,1A,6F,1A,6F,1A,6F,1A,6F,
4296227061,00000232,false,Rx,0,4,00,00,00,38,00,00,00,00,
4296227277,00000320,false,Rx,0,8,44,20,04,00,00,00,00,93,
4296232056,00000351,false,Rx,0,4,00,00,00,00,00,00,00,00,
4296232873,00000020,false,Rx,0,7,20,00,07,01,00,00,4F,00,
4296233143,000000B4,false,Rx,0,8,00,00,00,00,00,00,00,BC,
4296233359,00000025,false,Rx,0,8,A2,37,98,00,FF,FF,FF,9B,
4296233637,00000024,false,Rx,0,8,02,01,01,F5,62,1A,80,21,
4296233857,00000127,false,Rx,0,8,00,10,00,08,00,0E,FE,54,
4296234073,00000235,false,Rx,0,6,00,00,00,00,00,3D,00,00,
4296234566,000006C0,false,Rx,0,8,E4,00,80,A0,00,00,00,00,
4296234894,000001C4,false,Rx,0,8,00,00,00,00,00,00,00,CD,
4296237174,00000383,false,Rx,0,8,01,00,01,00,00,00,00,00,
4296241764,000000AA,false,Rx,0,8,1A,6F,1A,6F,1A,6F,1A,6F,
4296241769,000000B6,false,Rx,0,4,00,00,00,BA,00,00,00,00,
4296241774,00000224,false,Rx,0,8,00,00,00,00,00,00,00,08,
4296241779,000004C7,false,Rx,0,8,08,00,01,21,00,00,00,00,
4296242269,00000260,false,Rx,0,8,00,00,01,00,00,00,00,6B,
4296243303,00000245,false,Rx,0,5,00,00,00,00,4C,00,00,00,
4296244935,00000020,false,Rx,0,7,20,00,07,01,00,00,4F,00,
4296245152,00000230,false,Rx,0,7,00,02,02,01,00,00,3E,00,
4296245368,00000025,false,Rx,0,8,A2,37,98,00,FF,FF,FF,9B,
4296245755,00000024,false,Rx,0,8,02,02,01,F5,62,1A,80,22,
4296246348,00000247,false,Rx,0,5,06,00,FF,00,00,00,00,00,
4296247272,00000262,false,Rx,0,5,21,00,00,00,8A,00,00,00,
4296249502,00000127,false,Rx,0,8,00,10,00,08,00,0E,FE,54,
4296251074,000000AA,false,Rx,0,8,1A,6F,1A,6F,1A,6F,1A,6F,
4296251237,00000232,false,Rx,0,4,00,00,00,38,00,00,00,00,
4296256996,00000020,false,Rx,0,7,20,00,07,01,00,00,4F,00,
4296257266,000000B4,false,Rx,0,8,00,00,00,00,00,00,00,BC,
4296257491,00000025,false,Rx,0,8,A2,37,98,00,FF,FF,FF,9B,
4296257707,00000235,false,Rx,0,6,00,00,00,00,00,3D,00,00,
4296258035,00000024,false,Rx,0,8,02,02,01,F5,62,1A,80,22,
4296261804,000001C4,false,Rx,0,8,00,00,00,00,00,00,00,CD,
4296262511,00000260,false,Rx,0,8,00,00,02,00,00,00,00,6C,
4296263106,000000AA,false,Rx,0,8,1A,6F,1A,6F,1A,6F,1A,6F,
4296263322,000001AA,false,Rx,0,6,00,00,00,00,00,B1,00,00,
4296263545,00000224,false,Rx,0,8,00,00,00,00,00,00,00,08,
4296265880,00000127,false,Rx,0,8,00,10,00,08,00,0E,FE,54,
4296266859,00000245,false,Rx,0,5,00,00,00,00,4C,00,00,00,
4296267784,00000382,false,Rx,0,2,27,38,00,00,00,00,00,00,
4296269086,00000020,false,Rx,0,7,20,00,07,01,00,00,4F,00,
4296269302,00000230,false,Rx,0,7,00,02,02,01,00,00,3E,00,
4296269526,00000025,false,Rx,0,8,A2,37,98,00,FF,FF,FF,9B,
4296269689,0000032A,false,Rx,0,2,00,2F,00,00,00,00,00,00,
4296269906,00000247,false,Rx,0,5,06,00,FF,00,00,00,00,00,
4296270337,00000024,false,Rx,0,8,02,02,01,F5,62,1A,80,22,
4296270885,000003FA,false,Rx,0,1,00,00,00,00,00,00,00,00,
4296275063,00000361,false,Rx,0,8,80,00,00,00,20,00,00,88,
4296275333,000000AA,false,Rx,0,8,1A,6F,1A,6F,1A,6F,1A,6F,
4296275503,00000232,false,Rx,0,4,00,00,00,38,00,00,00,00,
4296275720,00000320,false,Rx,0,8,44,20,04,00,00,00,00,93,
4296275992,000004A0,false,Rx,0,8,06,BA,00,00,00,00,00,00,
4296276209,000004A1,false,Rx,0,8,FE,05,80,DE,80,20,C1,42,
4296276487,000004A2,false,Rx,0,8,19,00,00,C7,00,37,BB,01,
4296281842,00000020,false,Rx,0,7,20,00,07,01,00,00,4F,00,
4296281847,000000B4,false,Rx,0,8,00,00,00,00,00,00,00,BC,
4296281852,00000025,false,Rx,0,8,A2,37,98,00,FF,FF,FF,9B,
4296281858,00000024,false,Rx,0,8,02,02,01,F5,62,1A,80,22,
4296282078,000001C4,false,Rx,0,8,00,00,00,00,00,00,00,CD,
4296282295,00000127,false,Rx,0,8,00,10,00,08,00,0E,FE,54,
4296282519,00000235,false,Rx,0,6,00,00,00,00,00,3D,00,00,
4296282793,00000260,false,Rx,0,8,00,00,02,00,00,00,00,6C,
4296287134,000000AA,false,Rx,0,8,1A,6F,1A,6F,1A,6F,1A,6F,
4296287296,000000B6,false,Rx,0,4,00,00,00,BA,00,00,00,00,
4296287574,00000224,false,Rx,0,8,00,00,00,00,00,00,00,08,
4296287737,00000262,false,Rx,0,5,21,00,00,00,8A,00,00,00,
4296287848,00000394,false,Rx,0,1,00,00,00,00,00,00,00,00,
4296290394,00000245,false,Rx,0,5,00,00,00,00,4C,00,00,00,
4296292732,00000351,false,Rx,0,4,00,00,00,00,00,00,00,00,
4296293164,00000020,false,Rx,0,7,20,00,07,01,00,00,4F,00,
4296293381,00000230,false,Rx,0,7,00,02,02,01,00,00,3E,00,
4296293605,00000247,false,Rx,0,5,06,00,FF,00,00,00,00,00,
4296293826,00000025,false,Rx,0,8,A2,37,98,00,FF,FF,FF,9B,
4296294043,00000024,false,Rx,0,8,02,01,01,F5,62,19,81,21,
4296297598,000003B1,false,Rx,0,8,00,00,01,01,00,08,00,00,
4296301867,00000127,false,Rx,0,8,00,10,00,08,00,0E,FE,54,
4296301872,000000AA,false,Rx,0,8,1A,6F,1A,6F,1A,6F,1A,6F,
4296301877,00000232,false,Rx,0,4,00,00,00,38,00,00,00,00,
4296301883,000004C1,false,Rx,0,8,01,00,00,00,00,00,00,00,
4296301888,00000442,false,Rx,0,8,43,02,00,00,04,00,00,00,
4296302925,00000260,false,Rx,0,8,00,00,02,00,00,00,00,6C,
4296305257,00000020,false,Rx,0,7,20,00,07,01,00,00,4F,00,
4296305480,000000B4,false,Rx,0,8,00,00,00,00,00,00,00,BC,
4296305751,00000025,false,Rx,0,8,A2,37,98,00,FF,FF,FF,9B,
4296305968,000001C4,false,Rx,0,8,00,00,00,00,00,00,00,CD,
4296306239,00000024,false,Rx,0,8,02,01,01,F4,62,19,7F,1E,
4296306462,00000235,false,Rx,0,6,00,00,00,00,00,3D,00,00,
4296311233,000000AA,false,Rx,0,8,1A,6F,1A,6F,1A,6F,1A,6F,
4296311456,000001AA,false,Rx,0,6,00,00,00,00,00,B1,00,00,
4296311672,00000224,false,Rx,0,8,00,00,00,00,00,00,00,08,
4296313932,00000245,false,Rx,0,5,00,00,00,00,4C,00,00,00,
4296315018,00000127,false,Rx,0,8,00,10,00,08,00,0E,FE,54,
4296317029,00000247,false,Rx,0,5,06,00,FF,00,00,00,00,00,
4296317299,00000020,false,Rx,0,7,20,00,07,01,00,00,4F,00,
4296317523,00000230,false,Rx,0,7,00,02,02,01,00,00,3E,00,
4296317741,00000025,false,Rx,0,8,A2,37,98,00,FF,FF,FF,9B,
4296317916,0000032A,false,Rx,0,2,00,2F,00,00,00,00,00,00,
4296321908,00000024,false,Rx,0,8,02,01,01,F4,62,19,81,20,
4296323158,00000260,false,Rx,0,8,00,00,02,00,00,00,00,6C,
4296323380,000000AA,false,Rx,0,8,1A,6F,1A,6F,1A,6F,1A,6F,
4296323550,00000232,false,Rx,0,4,00,00,00,38,00,00,00,00,
4296323822,00000320,false,Rx,0,8,44,20,04,00,FF,00,00,92,
4296328002,00000262,false,Rx,0,5,21,00,00,00,8A,00,00,00,
4296329089,000001C4,false,Rx,0,8,00,00,00,00,00,00,00,CD,
4296329306,00000020,false,Rx,0,7,20,00,07,01,00,00,4F,00,
4296329584,000000B4,false,Rx,0,8,00,00,00,00,00,00,00,BC,
4296329802,00000024,false,Rx,0,8,02,01,01,F4,62,19,80,1F,
4296330073,00000025,false,Rx,0,8,A2,37,98,00,FF,FF,FF,9B,
4296330290,00000235,false,Rx,0,6,00,00,00,00,00,3D,00,00,
4296331439,00000127,false,Rx,0,8,00,10,00,08,00,0E,FE,54,
4296335341,000000AA,false,Rx,0,8,1A,6F,1A,6F,1A,6F,1A,6F,
4296335512,000000B6,false,Rx,0,4,00,00,00,BA,00,00,00,00,
4296335729,00000224,false,Rx,0,8,00,00,00,00,00,00,00,08,
4296337524,00000245,false,Rx,0,5,00,00,00,00,4C,00,00,00,
4296340790,00000361,false,Rx,0,8,80,00,00,00,20,00,00,88,
4296340795,00000247,false,Rx,0,5,06,00,FF,00,00,00,00,00,
4296341392,00000020,false,Rx,0,7,20,00,07,01,00,00,4F,00,
4296341562,00000230,false,Rx,0,7,00,02,02,01,00,00,3E,00,
4296341835,00000025,false,Rx,0,8,A2,37,98,00,FF,FF,FF,9B,
4296342051,00000024,false,Rx,0,8,02,01,01,F4,62,19,80,1F,
4296343409,00000260,false,Rx,0,8,00,00,02,00,00,00,00,6C,
4296347432,000000AA,false,Rx,0,8,1A,6F,1A,6F,1A,6F,1A,6F,
4296347595,00000232,false,Rx,0,4,00,00,00,38,00,00,00,00,
4296347814,00000127,false,Rx,0,8,00,10,00,08,00,0E,FE,54,
4296352648,000001C4,false,Rx,0,8,00,00,00,00,00,00,00,CD,
4296353466,00000020,false,Rx,0,7,20,00,07,01,00,00,4F,00,
4296353683,000000B4,false,Rx,0,8,00,00,00,00,00,00,00,BC,
4296353901,00000025,false,Rx,0,8,A2,37,98,00,FF,FF,FF,9B,
4296354118,00000235,false,Rx,0,6,00,00,00,00,00,3D,00,00,
4296354389,00000024,false,Rx,0,8,02,01,01,F4,62,19,80,1F,
4296354559,00000351,false,Rx,0,4,00,00,00,00,00,00,00,00,
4296360777,000000AA,false,Rx,0,8,1A,6F,1A,6F,1A,6F,1A,6F,
4296360783,000001AA,false,Rx,0,6,00,00,00,00,00,B1,00,00,
4296360788,00000224,false,Rx,0,8,00,00,00,00,00,00,00,08,
4296361063,00000245,false,Rx,0,5,00,00,00,00,4C,00,00,00,
4296363616,00000260,false,Rx,0,8,00,00,01,00,00,00,00,6B,
4296364214,00000127,false,Rx,0,8,00,10,00,08,00,0E,FE,54,
4296364376,00000247,false,Rx,0,5,06,00,FF,00,00,00,00,00,
4296365524,00000020,false,Rx,0,7,20,00,07,01,00,00,4F,00,
4296365741,00000230,false,Rx,0,7,00,02,02,01,00,00,3E,00,
4296366012,00000025,false,Rx,0,8,A2,37,98,00,FF,FF,FF,9B,
4296366121,0000032A,false,Rx,0,2,00,2F,00,00,00,00,00,00,
4296366560,00000024,false,Rx,0,8,02,02,01,F4,62,19,80,20,
4296368678,00000262,false,Rx,0,5,21,00,00,00,8A,00,00,00,
4296369327,000003F9,false,Rx,0,8,58,5C,56,01,00,00,00,0F,
4296369930,00000620,false,Rx,0,8,10,00,00,26,B0,00,00,50,
4296371340,00000499,false,Rx,0,8,D2,00,37,80,00,00,00,00,
4296371618,000000AA,false,Rx,0,8,1A,6F,1A,6F,1A,6F,1A,6F,
4296371836,00000232,false,Rx,0,4,00,00,00,38,00,00,00,00,
4296372052,00000320,false,Rx,0,8,44,20,04,00,FF,00,00,92,
4296376179,000001C4,false,Rx,0,8,00,00,00,00,00,00,00,CD,
4296377489,0000049A,false,Rx,0,8,00,13,A1,00,51,40,32,A8,
4296377761,00000020,false,Rx,0,7,20,00,07,01,00,00,4F,00,
4296377978,000000B4,false,Rx,0,8,00,00,00,00,00,00,00,BC,
4296378194,00000025,false,Rx,0,8,A2,37,98,00,FF,FF,FF,9B,
4296382009,00000235,false,Rx,0,6,00,00,00,00,00,3D,00,00,
4296382014,0000063B,false,Rx,0,8,16,00,3A,F6,00,00,14,B8,
4296382020,00000024,false,Rx,0,8,02,02,01,F4,62,19,80,20,
4296382025,00000127,false,Rx,0,8,00,10,00,08,00,0E,FE,54,
4296382630,0000049B,false,Rx,0,8,00,A0,23,20,08,00,40,00,
4296383772,000000AA,false,Rx,0,8,1A,6F,1A,6F,1A,6F,1A,6F,
4296383936,000000B6,false,Rx,0,4,00,00,00,BA,00,00,00,00,
4296384152,00000224,false,Rx,0,8,00,00,00,00,00,00,00,08,
4296384430,00000260,false,Rx,0,8,00,00,02,00,00,00,00,6C,
4296384592,00000245,false,Rx,0,5,00,00,00,00,4C,00,00,00,
4296387685,00000247,false,Rx,0,5,06,00,FF,00,00,00,00,00,
4296387905,0000049D,false,Rx,0,8,66,65,00,C2,81,0A,37,80,
4296389807,00000020,false,Rx,0,7,20,00,07,01,00,00,4F,00,
4296390024,00000230,false,Rx,0,7,00,02,02,01,00,00,3E,00,
4296390295,00000024,false,Rx,0,8,02,01,01,F4,62,19,80,1F,
4296390519,00000025,false,Rx,0,8,A2,37,98,00,FF,FF,FF,9B,
4296390736,00000610,false,Rx,0,8,20,00,00,64,C0,FF,FD,74,
4296391826,000004A8,false,Rx,0,8,00,07,80,00,00,00,00,04,
4296395898,000000AA,false,Rx,0,8,1A,6F,1A,6F,1A,6F,1A,6F,
4296396061,00000232,false,Rx,0,4,00,00,00,38,00,00,00,00,
4296396988,00000127,false,Rx,0,8,00,10,00,08,00,0E,FE,54,
4296401975,000001C4,false,Rx,0,8,00,00,00,00,00,00,00,CD,
4296401980,00000443,false,Rx,0,8,4D,02,00,2F,06,00,00,00,
4296401985,0000049E,false,Rx,0,8,00,80,00,C0,01,B8,02,4B,
4296401991,00000020,false,Rx,0,7,20,00,07,01,00,00,4F,00,
4296402104,000000B4,false,Rx,0,8,00,00,00,00,00,00,00,BC,
4296402321,00000025,false,Rx,0,8,A2,37,98,00,FF,FF,FF,9B,
4296402545,00000024,false,Rx,0,8,02,02,01,F4,62,19,80,20,
4296402766,00000235,false,Rx,0,6,00,00,00,00,00,3D,00,00,
4296404066,00000260,false,Rx,0,8,00,00,02,00,00,00,00,6C,
4296404337,00000361,false,Rx,0,8,80,00,00,00,20,00,00,88,
4296404561,0000049F,false,Rx,0,8,00,44,D0,00,00,00,00,00,
4296407927,000000AA,false,Rx,0,8,1A,6F,1A,6F,1A,6F,1A,6F,
4296408144,000001AA,false,Rx,0,6,00,00,00,00,00,B1,00,00,
4296408361,00000224,false,Rx,0,8,00,00,00,00,00,00,00,08,
4296408585,00000245,false,Rx,0,5,00,00,00,00,4C,00,00,00,
4296408967,00000262,false,Rx,0,5,21,00,00,00,8A,00,00,00,
4296409945,00000626,false,Rx,0,8,1C,00,00,00,00,00,00,00,
4296410546,00000616,false,Rx,0,8,2B,00,00,00,00,00,00,00,
4296410928,00000387,false,Rx,0,8,00,00,00,00,00,00,3F,3F,
4296411252,00000247,false,Rx,0,5,06,00,FF,00,00,00,00,00,
4296413372,00000127,false,Rx,0,8,00,10,00,08,00,0E,FE,54,
4296413867,00000020,false,Rx,0,7,20,00,07,01,00,00,4F,00,
4296414084,00000230,false,Rx,0,7,00,02,02,01,00,00,3E,00,
4296414355,00000025,false,Rx,0,8,A2,37,98,00,FF,FF,FF,9B,
4296414470,0000032A,false,Rx,0,2,00,2F,00,00,00,00,00,00,
4296414740,00000024,false,Rx,0,8,02,02,01,F4,62,19,80,20,
4296414904,00000351,false,Rx,0,4,00,00,00,00,00,00,00,00,
4296417891,00000389,false,Rx,0,8,00,20,00,00,00,00,00,00,
4296423181,000000AA,false,Rx,0,8,1A,6F,1A,6F,1A,6F,1A,6F,
4296423187,00000232,false,Rx,0,4,00,00,00,38,00,00,00,00,
4296423192,00000320,false,Rx,0,8,44,20,04,00,FF,00,00,92,
4296423306,000001C4,false,Rx,0,8,00,00,00,00,00,00,00,CD,
4296424180,00000260,false,Rx,0,8,00,00,02,00,00,00,00,6C,
4296425871,00000020,false,Rx,0,7,20,00,07,01,00,00,4F,00,
4296426142,000000B4,false,Rx,0,8,00,00,00,00,00,00,00,BC,
4296426359,00000025,false,Rx,0,8,A2,37,98,00,FF,FF,FF,9B,
4296426583,00000235,false,Rx,0,6,00,00,00,00,00,3D,00,00,
4296426856,000003B7,false,Rx,0,8,00,07,00,00,00,00,00,00,
4296427073,00000024,false,Rx,0,8,02,01,01,F4,62,19,80,1F,
4296429735,00000127,false,Rx,0,8,00,10,00,08,00,0E,FE,54,
4296431748,00000245,false,Rx,0,5,00,00,00,00,4C,00,00,00,
4296432019,000000AA,false,Rx,0,8,1A,6F,1A,6F,1A,6F,1A,6F,
4296432182,000000B6,false,Rx,0,4,00,00,00,BA,00,00,00,00,
4296432460,00000224,false,Rx,0,8,00,00,00,00,00,00,00,08,
4296434847,00000247,false,Rx,0,5,06,00,FF,00,00,00,00,00,
4296437942,00000020,false,Rx,0,7,20,00,07,01,00,00,4F,00,
4296438159,00000230,false,Rx,0,7,00,02,02,01,00,00,3E,00,
4296440845,00000024,false,Rx,0,8,02,01,01,F4,62,19,80,1F,
4296440850,00000025,false,Rx,0,8,A2,37,98,00,FF,FF,FF,9B,
4296444057,000000AA,false,Rx,0,8,1A,6F,1A,6F,1A,6F,1A,6F,
4296444219,00000232,false,Rx,0,4,00,00,00,38,00,00,00,00,
4296444435,00000260,false,Rx,0,8,00,00,02,00,00,00,00,6C,
4296446128,00000127,false,Rx,0,8,00,10,00,08,00,0E,FE,54,
4296446892,000001C4,false,Rx,0,8,00,00,00,00,00,00,00,CD,
4296449385,00000262,false,Rx,0,5,21,00,00,00,8A,00,00,00,
4296450041,00000020,false,Rx,0,7,20,00,07,01,00,00,4F,00,
4296450312,000000B4,false,Rx,0,8,00,00,00,00,00,00,00,BC,
4296450536,00000025,false,Rx,0,8,A2,37,98,00,FF,FF,FF,9B,
4296450756,00000024,false,Rx,0,8,02,01,01,F4,62,19,80,1F,
4296450972,00000235,false,Rx,0,6,00,00,00,00,00,3D,00,00,
4296455310,00000245,false,Rx,0,5,00,00,00,00,4C,00,00,00,
4296456074,000000AA,false,Rx,0,8,1A,6F,1A,6F,1A,6F,1A,6F,
4296456290,000001AA,false,Rx,0,6,00,00,00,00,00,B1,00,00,
4296456568,00000224,false,Rx,0,8,00,00,00,00,00,00,00,08,
4296458355,00000247,false,Rx,0,5,06,00,FF,00,00,00,00,00,
4296462141,00000020,false,Rx,0,7,20,00,07,01,00,00,4F,00,
4296462358,00000230,false,Rx,0,7,00,02,02,01,00,00,3E,00,
4296462582,00000025,false,Rx,0,8,A2,37,98,00,FF,FF,FF,9B,
4296462799,00000127,false,Rx,0,8,00,10,00,08,00,0E,FE,54,
4296463070,00000024,false,Rx,0,8,02,01,01,F4,62,19,80,1F,
4296463179,0000032A,false,Rx,0,2,00,2F,00,00,00,00,00,00,
4296464760,00000260,false,Rx,0,8,00,00,02,00,00,00,00,6C,
4296468072,000000AA,false,Rx,0,8,1A,6F,1A,6F,1A,6F,1A,6F,
4296468235,00000232,false,Rx,0,4,00,00,00,38,00,00,00,00,
4296468513,00000320,false,Rx,0,8,44,20,04,00,FF,00,00,92,
4296468729,00000361,false,Rx,0,8,80,00,00,00,20,00,00,88,
4296470410,000001C4,false,Rx,0,8,00,00,00,00,00,00,00,CD,
4296470902,0000038E,false,Rx,0,8,00,00,00,00,00,00,00,00,
4296474157,00000020,false,Rx,0,7,20,00,07,01,00,00,4F,00,
4296474435,000000B4,false,Rx,0,8,00,00,00,00,00,00,00,BC,
4296474651,00000025,false,Rx,0,8,A2,37,98,00,FF,FF,FF,9B,
4296474871,00000235,false,Rx,0,6,00,00,00,00,00,3D,00,00,
4296475034,00000351,false,Rx,0,4,00,00,00,00,00,00,00,00,
4296475250,00000024,false,Rx,0,8,02,01,01,F4,62,19,80,1F,
4296477913,0000038F,false,Rx,0,8,09,00,00,00,00,00,00,00,
4296482121,00000127,false,Rx,0,8,00,10,00,08,00,0E,FE,54,
4296482126,00000245,false,Rx,0,5,00,00,00,00,4C,00,00,00,
4296482131,000000AA,false,Rx,0,8,1A,6F,1A,6F,1A,6F,1A,6F,
4296482136,000000B6,false,Rx,0,4,00,00,00,BA,00,00,00,00,
4296482142,00000224,false,Rx,0,8,00,00,00,00,00,00,00,08,
4296482147,00000247,false,Rx,0,5,06,00,FF,00,00,00,00,00,
4296484977,00000260,false,Rx,0,8,00,00,02,00,00,00,00,6C,
4296486224,00000020,false,Rx,0,7,20,00,07,01,00,00,4F,00,
4296486448,00000230,false,Rx,0,7,00,02,02,01,00,00,3E,00,
4296486665,00000025,false,Rx,0,8,A2,37,98,00,FF,FF,FF,9B,
4296487430,00000024,false,Rx,0,8,02,01,01,F4,62,19,81,20,
4296489978,00000262,false,Rx,0,5,21,00,00,00,8A,00,00,00,
4296492150,000000AA,false,Rx,0,8,1A,6F,1A,6F,1A,6F,1A,6F,
4296492313,00000232,false,Rx,0,4,00,00,00,38,00,00,00,00,
4296493998,000001C4,false,Rx,0,8,00,00,00,00,00,00,00,CD,
4296495301,00000127,false,Rx,0,8,00,10,00,08,00,0E,FE,54,
4296498236,00000020,false,Rx,0,7,20,00,07,01,00,00,4F,00,
4296498513,000000B4,false,Rx,0,8,00,00,00,00,00,00,00,BC,
4296500992,00000025,false,Rx,0,8,A2,37,98,00,FF,FF,FF,9B,
4296500998,00000024,false,Rx,0,8,02,01,01,F4,62,1A,80,20,
4296501003,00000235,false,Rx,0,6,00,00,00,00,00,3D,00,00,
4296501008,0000044D,false,Rx,0,8,5C,02,00,00,00,00,00,00,
4296502389,00000245,false,Rx,0,5,00,00,00,00,4C,00,00,00,
4296504083,000003D3,false,Rx,0,2,00,00,00,00,00,00,00,00,
4296504352,000000AA,false,Rx,0,8,1A,6F,1A,6F,1A,6F,1A,6F,
4296504521,000001AA,false,Rx,0,6,00,00,00,00,00,B1,00,00,
4296504791,00000224,false,Rx,0,8,00,00,00,00,00,00,00,08,
4296505062,00000260,false,Rx,0,8,00,00,02,00,00,00,00,6C,
4296505496,00000247,false,Rx,0,5,06,00,FF,00,00,00,00,00,
4296510271,00000020,false,Rx,0,7,20,00,07,01,00,00,4F,00,
4296510494,00000230,false,Rx,0,7,00,02,02,01,00,00,3E,00,
4296510711,00000025,false,Rx,0,8,A2,37,98,00,FF,FF,FF,9B,
4296510821,0000032A,false,Rx,0,2,00,2F,00,00,00,00,00,00,
4296511092,00000024,false,Rx,0,8,02,01,01,F4,62,1A,80,20,
4296511692,00000127,false,Rx,0,8,00,10,00,08,00,0E,FE,54,
4296516303,000000AA,false,Rx,0,8,1A,6F,1A,6F,1A,6F,1A,6F,
4296516468,00000232,false,Rx,0,4,00,00,00,38,00,00,00,00,
4296516738,00000320,false,Rx,0,8,44,20,04,00,00,00,00,93,
4296517499,000001C4,false,Rx,0,8,00,00,00,00,00,00,00,CD,
4296522208,000004A6,false,Rx,0,8,8C,80,0F,0F,0F,0F,08,00,
4296522321,00000020,false,Rx,0,7,20,00,07,01,00,00,4F,00,
4296522545,000000B4,false,Rx,0,8,00,00,00,00,00,00,00,BC,
4296522763,00000025,false,Rx,0,8,A2,37,98,00,FF,FF,FF,9B,
4296522980,00000235,false,Rx,0,6,00,00,00,00,00,3D,00,00,
4296523257,00000024,false,Rx,0,8,02,01,01,F4,62,1A,7F,1F,
4296525434,00000260,false,Rx,0,8,00,00,02,00,00,00,00,6C,
4296525978,00000245,false,Rx,0,5,00,00,00,00,4C,00,00,00,
4296528096,00000127,false,Rx,0,8,00,10,00,08,00,0E,FE,54,
4296528313,000000AA,false,Rx,0,8,1A,6F,1A,6F,1A,6F,1A,6F,
4296528482,000000B6,false,Rx,0,4,00,00,00,BA,00,00,00,00,
4296528755,00000224,false,Rx,0,8,00,00,00,00,00,00,00,08,
4296529080,00000247,false,Rx,0,5,06,00,FF,00,00,00,00,00,
4296530439,00000262,false,Rx,0,5,21,00,00,00,8A,00,00,00,
4296530928,000003A5,false,Rx,0,8,00,00,00,00,00,00,20,00,
4296533204,00000361,false,Rx,0,8,80,00,00,00,20,00,00,88,
4296534290,00000020,false,Rx,0,7,20,00,07,01,00,00,4F,00,
4296534514,00000230,false,Rx,0,7,00,02,02,01,00,00,3E,00,
4296534788,00000025,false,Rx,0,8,A2,37,98,00,FF,FF,FF,9B,
4296535005,000006C0,false,Rx,0,8,E4,00,80,A0,00,00,00,00,
4296535444,00000351,false,Rx,0,4,00,00,00,00,00,00,00,00,
4296535660,00000024,false,Rx,0,8,02,01,01,F5,62,1A,80,21,
4296542288,000000AA,false,Rx,0,8,1A,6F,1A,6F,1A,6F,1A,6F,
4296542293,00000232,false,Rx,0,4,00,00,00,38,00,00,00,00,
4296542298,000001C4,false,Rx,0,8,00,00,00,00,00,00,00,CD,
4296544473,00000127,false,Rx,0,8,00,10,00,08,00,0E,FE,54,
4296545674,00000260,false,Rx,0,8,00,00,02,00,00,00,00,6C,
4296546324,00000020,false,Rx,0,7,20,00,07,01,00,00,4F,00,
4296546601,000000B4,false,Rx,0,8,00,00,00,00,00,00,00,BC,
4296546819,00000025,false,Rx,0,8,A2,37,98,00,FF,FF,FF,9B,
4296547090,00000024,false,Rx,0,8,02,01,01,F5,62,1A,80,21,
4296547307,00000235,false,Rx,0,6,00,00,00,00,00,3D,00,00,
4296549540,00000245,false,Rx,0,5,00,00,00,00,4C,00,00,00,
4296552411,000000AA,false,Rx,0,8,1A,6F,1A,6F,1A,6F,1A,6F,
4296552635,000001AA,false,Rx,0,6,00,00,00,00,00,B1,00,00,
4296552857,00000224,false,Rx,0,8,00,00,00,00,00,00,00,08,
4296553074,00000247,false,Rx,0,5,06,00,FF,00,00,00,00,00,
4296558334,00000020,false,Rx,0,7,20,00,07,01,00,00,4F,00,
4296558612,00000230,false,Rx,0,7,00,02,02,01,00,00,3E,00,
4296561104,00000025,false,Rx,0,8,A2,37,98,00,FF,FF,FF,9B,
4296561109,0000032A,false,Rx,0,2,00,2F,00,00,00,00,00,00,
4296561114,00000024,false,Rx,0,8,02,01,01,F5,62,1A,80,21,
4296561119,00000127,false,Rx,0,8,00,10,00,08,00,0E,FE,54,
4296561125,00000413,false,Rx,0,8,01,01,01,09,00,00,00,00,
4296564480,000000AA,false,Rx,0,8,1A,6F,1A,6F,1A,6F,1A,6F,
4296564697,000001C4,false,Rx,0,8,00,00,00,00,00,00,00,CD,
4296564915,00000232,false,Rx,0,4,00,00,00,38,00,00,00,00,
4296565132,00000320,false,Rx,0,8,44,20,04,00,00,00,00,93,
4296565894,00000260,false,Rx,0,8,00,00,01,00,00,00,00,6B,
4296570395,00000611,false,Rx,0,8,21,00,00,25,00,02,36,30,
4296570618,00000020,false,Rx,0,7,20,00,07,01,00,00,4F,00,
4296570892,000000B4,false,Rx,0,8,00,00,00,00,00,00,00,BC,
4296571108,00000025,false,Rx,0,8,A2,37,98,00,FF,FF,FF,9B,
4296571325,00000235,false,Rx,0,6,00,00,00,00,00,3D,00,00,
4296571550,00000024,false,Rx,0,8,02,02,01,F5,62,1A,80,22,
4296571768,00000262,false,Rx,0,5,21,00,00,00,8A,00,00,00,
4296571877,000003FA,false,Rx,0,1,00,00,00,00,00,00,00,00,
4296573072,00000245,false,Rx,0,5,00,00,00,00,4C,00,00,00,
4296576166,00000247,false,Rx,0,5,06,00,FF,00,00,00,00,00,
4296576497,000000AA,false,Rx,0,8,1A,6F,1A,6F,1A,6F,1A,6F,
4296576714,000000B6,false,Rx,0,4,00,00,00,BA,00,00,00,00,
4296576934,00000224,false,Rx,0,8,00,00,00,00,00,00,00,08,
4296577258,00000127,false,Rx,0,8,00,10,00,08,00,0E,FE,54,
4296582613,00000020,false,Rx,0,7,20,00,07,01,00,00,4F,00,
4296582832,00000230,false,Rx,0,7,00,02,02,01,00,00,3E,00,
4296583048,00000025,false,Rx,0,8,A2,37,98,00,FF,FF,FF,9B,
4296583648,00000024,false,Rx,0,8,02,02,01,F5,62,1A,80,22,
4296586142,00000260,false,Rx,0,8,00,00,01,00,00,00,00,6B,
4296588204,000001C4,false,Rx,0,8,00,00,00,00,00,00,00,CD,
4296588589,000000AA,false,Rx,0,8,1A,6F,1A,6F,1A,6F,1A,6F,
4296588755,00000232,false,Rx,0,4,00,00,00,38,00,00,00,00,
4296590439,00000613,false,Rx,0,8,28,00,00,08,00,00,00,00,
4296590874,00000394,false,Rx,0,1,00,00,00,00,00,00,00,00,
4296593640,00000127,false,Rx,0,8,00,10,00,08,00,0E,FE,54,
4296594727,00000020,false,Rx,0,7,20,00,07,01,00,00,4F,00,
4296594946,000000B4,false,Rx,0,8,00,00,00,00,00,00,00,BC,
4296595215,00000025,false,Rx,0,8,A2,37,98,00,FF,FF,FF,9B,
4296595440,00000235,false,Rx,0,6,00,00,00,00,00,3D,00,00,
4296595927,00000435,false,Rx,0,8,81,0A,05,FF,E0,0F,60,03,
4296596144,00000024,false,Rx,0,8,02,02,01,F5,62,1A,80,22,
4296596308,00000351,false,Rx,0,4,00,00,00,00,00,00,00,00,
4296596639,00000245,false,Rx,0,5,00,00,00,00,4C,00,00,00,
4296597726,00000361,false,Rx,0,8,80,00,00,00,20,00,00,88,
4296602312,00000247,false,Rx,0,5,06,00,FF,00,00,00,00,00,
4296602317,000000AA,false,Rx,0,8,1A,6F,1A,6F,1A,6F,1A,6F,
4296602322,000001AA,false,Rx,0,6,00,00,00,00,00,B1,00,00,
4296602328,00000224,false,Rx,0,8,00,00,00,00,00,00,00,08,
4296602496,0000045C,false,Rx,0,8,5F,02,00,20,08,00,00,00,
4296606376,00000260,false,Rx,0,8,00,00,02,00,00,00,00,6C,
4296606765,00000020,false,Rx,0,7,20,00,07,01,00,00,4F,00,
4296606982,00000230,false,Rx,0,7,00,02,02,01,00,00,3E,00,
4296607253,00000025,false,Rx,0,8,A2,37,98,00,FF,FF,FF,9B,
4296607476,00000024,false,Rx,0,8,02,02,01,F5,62,1A,80,22,
4296607585,0000032A,false,Rx,0,2,00,2F,00,00,00,00,00,00,
4296610029,00000127,false,Rx,0,8,00,10,00,08,00,0E,FE,54,
4296611385,00000262,false,Rx,0,5,21,00,00,00,8A,00,00,00,
4296611773,000001C4,false,Rx,0,8,00,00,00,00,00,00,00,CD,
4296611989,000003B3,false,Rx,0,3,00,00,28,00,00,00,00,00,
4296612914,000000AA,false,Rx,0,8,1A,6F,1A,6F,1A,6F,1A,6F,
4296613077,00000232,false,Rx,0,4,00,00,00,38,00,00,00,00,
4296613293,00000320,false,Rx,0,8,44,20,04,00,00,00,00,93,
4296621148,00000020,false,Rx,0,7,20,00,07,01,00,00,4F,00,
4296621153,000000B4,false,Rx,0,8,00,00,00,00,00,00,00,BC,
4296621158,00000025,false,Rx,0,8,A2,37,98,00,FF,FF,FF,9B,
4296621164,00000024,false,Rx,0,8,02,01,01,F5,62,1A,7F,20,
4296621169,00000235,false,Rx,0,6,00,00,00,00,00,3D,00,00,
4296621174,000003F9,false,Rx,0,8,58,5C,56,01,00,00,00,0F,
4296621180,00000245,false,Rx,0,5,00,00,00,00,4C,00,00,00,
4296623253,00000247,false,Rx,0,5,06,00,FF,00,00,00,00,00,
4296625050,000000AA,false,Rx,0,8,1A,6F,1A,6F,1A,6F,1A,6F,
4296625213,000000B6,false,Rx,0,4,00,00,00,BA,00,00,00,00,
4296625437,00000224,false,Rx,0,8,00,00,00,00,00,00,00,08,
4296626408,00000127,false,Rx,0,8,00,10,00,08,00,0E,FE,54,
4296626629,00000260,false,Rx,0,8,00,00,02,00,00,00,00,6C,
4296626955,00000436,false,Rx,0,8,00,00,00,00,00,00,00,00,
4296630486,000004DD,false,Rx,0,8,1E,00,00,02,00,00,00,00,
4296631137,00000020,false,Rx,0,7,20,00,07,01,00,00,4F,00,
4296631354,00000230,false,Rx,0,7,00,02,02,01,00,00,3E,00,
4296631577,00000025,false,Rx,0,8,A2,37,98,00,FF,FF,FF,9B,
4296631797,00000024,false,Rx,0,8,02,01,01,F4,62,1A,80,20,
4296635322,000001C4,false,Rx,0,8,00,00,00,00,00,00,00,CD,
4296637115,000000AA,false,Rx,0,8,1A,6F,1A,6F,1A,6F,1A,6F,
4296637278,00000232,false,Rx,0,4,00,00,00,38,00,00,00,00,
4296642792,00000127,false,Rx,0,8,00,10,00,08,00,0E,FE,54,
4296643223,00000020,false,Rx,0,7,20,00,07,01,00,00,4F,00,
4296643496,000000B4,false,Rx,0,8,00,00,00,00,00,00,00,BC,
4296643713,00000025,false,Rx,0,8,A2,37,98,00,FF,FF,FF,9B,
4296643930,00000235,false,Rx,0,6,00,00,00,00,00,3D,00,00,
4296644146,00000024,false,Rx,0,8,02,01,01,F4,62,1A,80,20,
4296644363,00000245,false,Rx,0,5,00,00,00,00,4C,00,00,00,
4296646865,00000260,false,Rx,0,8,00,00,01,00,00,00,00,6B,
4296647028,00000247,false,Rx,0,5,06,00,FF,00,00,00,00,00,
4296649250,000000AA,false,Rx,0,8,1A,6F,1A,6F,1A,6F,1A,6F,
4296649466,000001AA,false,Rx,0,6,00,00,00,00,00,B1,00,00,
4296649745,00000224,false,Rx,0,8,00,00,00,00,00,00,00,08,
4296651806,00000262,false,Rx,0,5,21,00,00,00,8A,00,00,00,
4296655276,00000020,false,Rx,0,7,20,00,07,01,00,00,4F,00,
4296655500,00000230,false,Rx,0,7,00,02,02,01,00,00,3E,00,
4296655775,00000025,false,Rx,0,8,A2,37,98,00,FF,FF,FF,9B,
4296655885,0000032A,false,Rx,0,2,00,2F,00,00,00,00,00,00,
4296656154,00000437,false,Rx,0,8,FC,FF,FF,FF,FF,FF,FF,FF,
4296656371,00000024,false,Rx,0,8,02,01,01,F4,62,1A,80,20,
4296656814,00000351,false,Rx,0,4,00,00,00,00,00,00,00,00,
4296662424,000001C4,false,Rx,0,8,00,00,00,00,00,00,00,CD,
4296662429,00000127,false,Rx,0,8,00,10,00,08,00,0E,FE,54,
4296662434,000000AA,false,Rx,0,8,1A,6F,1A,6F,1A,6F,1A,6F,
4296662440,00000232,false,Rx,0,4,00,00,00,38,00,00,00,00,
4296662445,00000320,false,Rx,0,8,44,20,04,00,00,00,00,93,
4296662450,00000361,false,Rx,0,8,80,00,00,00,20,00,00,88,
4296666901,00000260,false,Rx,0,8,00,00,02,00,00,00,00,6C,
4296667333,00000020,false,Rx,0,7,20,00,07,01,00,00,4F,00,
4296667557,000000B4,false,Rx,0,8,00,00,00,00,00,00,00,BC,
4296667832,00000024,false,Rx,0,8,02,01,01,F4,62,1A,80,20,
4296668049,00000025,false,Rx,0,8,A2,37,98,00,FF,FF,FF,9B,
4296668265,00000235,false,Rx,0,6,00,00,00,00,00,3D,00,00,
4296668435,00000245,false,Rx,0,5,00,00,00,00,4C,00,00,00,
4296670009,00000620,false,Rx,0,8,10,00,00,26,B0,00,00,50,
4296670387,00000247,false,Rx,0,5,06,00,FF,00,00,00,00,00,
4296673432,000000AA,false,Rx,0,8,1A,6F,1A,6F,1A,6F,1A,6F,
4296673596,000000B6,false,Rx,0,4,00,00,00,BA,00,00,00,00,
4296673814,00000224,false,Rx,0,8,00,00,00,00,00,00,00,08,
4296675554,00000127,false,Rx,0,8,00,10,00,08,00,0E,FE,54,
4296676256,000004A7,false,Rx,0,8,21,00,75,00,70,00,00,00,
4296676534,000003BB,false,Rx,0,4,00,00,00,00,00,00,00,00,
4296677290,00000498,false,Rx,0,8,C0,00,00,40,B9,00,00,15,
4296678324,0000049C,false,Rx,0,8,A0,05,0A,00,00,00,00,1E,
4296682464,00000020,false,Rx,0,7,20,00,07,01,00,00,4F,00,
4296682469,00000230,false,Rx,0,7,00,02,02,01,00,00,3E,00,
4296682474,00000025,false,Rx,0,8,A2,37,98,00,FF,FF,FF,9B,
4296682479,00000024,false,Rx,0,8,02,01,01,F4,62,1A,80,20,
4296682485,000001C4,false,Rx,0,8,00,00,00,00,00,00,00,CD,
4296685413,000000AA,false,Rx,0,8,1A,6F,1A,6F,1A,6F,1A,6F,
4296685583,00000232,false,Rx,0,4,00,00,00,38,00,00,00,00,
4296687210,00000260,false,Rx,0,8,00,00,02,00,00,00,00,6C,
4296690851,00000245,false,Rx,0,5,00,00,00,00,4C,00,00,00,
4296691390,00000020,false,Rx,0,7,20,00,07,01,00,00,4F,00,
4296691668,000000B4,false,Rx,0,8,00,00,00,00,00,00,00,BC,
4296691889,00000025,false,Rx,0,8,A2,37,98,00,FF,FF,FF,9B,
4296692105,00000127,false,Rx,0,8,00,10,00,08,00,0E,FE,54,
4296692376,00000024,false,Rx,0,8,02,02,01,F4,62,1A,80,21,
4296692545,00000235,false,Rx,0,6,00,00,00,00,00,3D,00,00,
4296692764,00000262,false,Rx,0,5,21,00,00,00,8A,00,00,00,
4296693959,00000247,false,Rx,0,5,06,00,FF,00,00,00,00,00,
4296697439,000000AA,false,Rx,0,8,1A,6F,1A,6F,1A,6F,1A,6F,
4296697656,000001AA,false,Rx,0,6,00,00,00,00,00,B1,00,00,
4296697877,00000224,false,Rx,0,8,00,00,00,00,00,00,00,08,
4296703490,00000020,false,Rx,0,7,20,00,07,01,00,00,4F,00,
4296703707,00000230,false,Rx,0,7,00,02,02,01,00,00,3E,00,
4296703927,00000025,false,Rx,0,8,A2,37,98,00,FF,FF,FF,9B,
4296704090,0000032A,false,Rx,0,2,00,2F,00,00,00,00,00,00,
4296704529,00000024,false,Rx,0,8,02,01,01,F4,62,19,80,1F,
4296705955,000001C4,false,Rx,0,8,00,00,00,00,00,00,00,CD,
4296706668,0000045F,false,Rx,0,8,40,02,00,00,01,00,00,00,
4296707486,00000260,false,Rx,0,8,00,00,02,00,00,00,00,6C,
4296708360,00000127,false,Rx,0,8,00,10,00,08,00,0E,FE,54,
4296709448,000000AA,false,Rx,0,8,1A,6F,1A,6F,1A,6F,1A,6F,
4296709618,00000232,false,Rx,0,4,00,00,00,38,00,00,00,00,
4296709891,00000320,false,Rx,0,8,44,20,04,00,00,00,00,93,
4296714455,00000245,false,Rx,0,5,00,00,00,00,4C,00,00,00,
4296715490,00000020,false,Rx,0,7,20,00,07,01,00,00,4F,00,
4296715761,000000B4,false,Rx,0,8,00,00,00,00,00,00,00,BC,
4296715977,00000024,false,Rx,0,8,02,01,01,F4,62,19,81,20,
4296716247,00000025,false,Rx,0,8,A2,37,98,00,FF,FF,FF,9B,
4296716410,00000235,false,Rx,0,6,00,00,00,00,00,3D,00,00,
4296717499,00000247,false,Rx,0,5,06,00,FF,00,00,00,00,00,
4296717662,00000351,false,Rx,0,4,00,00,00,00,00,00,00,00,
4296722477,000000AA,false,Rx,0,8,1A,6F,1A,6F,1A,6F,1A,6F,
4296722483,000000B6,false,Rx,0,4,00,00,00,BA,00,00,00,00,
4296722488,00000224,false,Rx,0,8,00,00,00,00,00,00,00,08,
4296724722,00000127,false,Rx,0,8,00,10,00,08,00,0E,FE,54,
4296726792,00000361,false,Rx,0,8,80,00,00,00,20,00,00,88,
4296727554,00000020,false,Rx,0,7,20,00,07,01,00,00,4F,00,
4296727774,00000230,false,Rx,0,7,00,02,02,01,00,00,3E,00,
4296728044,00000025,false,Rx,0,8,A2,37,98,00,FF,FF,FF,9B,
4296728261,00000024,false,Rx,0,8,02,01,01,F4,62,19,80,1F,
4296728485,00000260,false,Rx,0,8,00,00,01,00,00,00,00,6B,
4296728759,000003B7,false,Rx,0,8,00,07,00,00,00,00,00,00,
4296729521,000001C4,false,Rx,0,8,00,00,00,00,00,00,00,CD,
4296732723,00000262,false,Rx,0,5,21,00,00,00,8A,00,00,00,
4296733541,000000AA,false,Rx,0,8,1A,6F,1A,6F,1A,6F,1A,6F,
4296733704,00000232,false,Rx,0,4,00,00,00,38,00,00,00,00,
4296737996,00000245,false,Rx,0,5,00,00,00,00,4C,00,00,00,
4296741342,00000020,false,Rx,0,7,20,00,07,01,00,00,4F,00,
4296741347,000000B4,false,Rx,0,8,00,00,00,00,00,00,00,BC,
4296741352,00000025,false,Rx,0,8,A2,37,98,00,FF,FF,FF,9B,
4296741358,00000235,false,Rx,0,6,00,00,00,00,00,3D,00,00,
4296741363,00000024,false,Rx,0,8,02,01,01,F4,62,19,80,1F,
4296741368,00000127,false,Rx,0,8,00,10,00,08,00,0E,FE,54,
4296741374,00000247,false,Rx,0,5,06,00,FF,00,00,00,00,00,
4296745620,000000AA,false,Rx,0,8,1A,6F,1A,6F,1A,6F,1A,6F,
4296745837,000001AA,false,Rx,0,6,00,00,00,00,00,B1,00,00,
4296746054,00000224,false,Rx,0,8,00,00,00,00,00,00,00,08,
4296747958,00000260,false,Rx,0,8,00,00,01,00,00,00,00,6B,
4296751651,00000020,false,Rx,0,7,20,00,07,01,00,00,4F,00,
4296751870,00000230,false,Rx,0,7,00,02,02,01,00,00,3E,00,
4296752087,00000025,false,Rx,0,8,A2,37,98,00,FF,FF,FF,9B,
4296752197,0000032A,false,Rx,0,2,00,2F,00,00,00,00,00,00,
4296752636,00000024,false,Rx,0,8,02,01,01,F4,62,19,80,1F,
4296753071,000001C4,false,Rx,0,8,00,00,00,00,00,00,00,CD,
4296757526,00000127,false,Rx,0,8,00,10,00,08,00,0E,FE,54,
4296757743,000000AA,false,Rx,0,8,1A,6F,1A,6F,1A,6F,1A,6F,
4296757906,00000232,false,Rx,0,4,00,00,00,38,00,00,00,00,
4296758123,00000320,false,Rx,0,8,44,20,04,00,00,00,00,93,
4296762548,00000245,false,Rx,0,5,00,00,00,00,4C,00,00,00,
4296763636,00000020,false,Rx,0,7,20,00,07,01,00,00,4F,00,
4296763910,000000B4,false,Rx,0,8,00,00,00,00,00,00,00,BC,
4296764127,00000025,false,Rx,0,8,A2,37,98,00,FF,FF,FF,9B,
4296764344,00000235,false,Rx,0,6,00,00,00,00,00,3D,00,00,
4296764621,00000247,false,Rx,0,5,06,00,FF,00,00,00,00,00,
4296764948,00000024,false,Rx,0,8,02,01,01,F4,62,19,80,1F,
4296768203,00000260,false,Rx,0,8,00,00,02,00,00,00,00,6C,
4296769619,000000AA,false,Rx,0,8,1A,6F,1A,6F,1A,6F,1A,6F,
4296769840,000000B6,false,Rx,0,4,00,00,00,BA,00,00,00,00,
4296770057,00000224,false,Rx,0,8,00,00,00,00,00,00,00,08,
4296773042,00000262,false,Rx,0,5,21,00,00,00,8A,00,00,00,
4296773913,00000127,false,Rx,0,8,00,10,00,08,00,0E,FE,54,
4296775652,00000020,false,Rx,0,7,20,00,07,01,00,00,4F,00,
4296775870,00000230,false,Rx,0,7,00,02,02,01,00,00,3E,00,
4296776141,00000025,false,Rx,0,8,A2,37,98,00,FF,FF,FF,9B,
4296776357,00000024,false,Rx,0,8,02,01,01,F4,62,19,80,1F,
4296776635,000004A0,false,Rx,0,8,06,BA,00,00,00,00,00,00,
